

Cчетчик: номер 0

Открытие канала



00 01 30 30 30 30 30 30 0E 24   // передача: 10 байт; 19.08.48.887


00 00 14 00 AC 02 04 00 00 01 30 30 30 30 30 30 0E 24 54 CD   // передача: 20 байт; 19.08.48.887
// приём по количеству байт: 11 из 11

01 00 0B 00 AC 01 00 00 20 2D 9C   // прием: 11 байт; 19.08.48.943
// таймаут: 56 мсек


01 00 00 20   // прием: 4 байт; 19.08.48.943
// таймаут: 56 мсек

Канал открыт успешно


Время



00 04 00 73 00   // передача: 5 байт; 19.08.49.43


00 00 0F 00 AC 02 0B 00 00 04 00 73 00 81 E1   // передача: 15 байт; 19.08.49.43
// приём по количеству байт: 18 из 18

01 00 12 00 AC 01 34 08 19 04 17 01 19 01 E1 AA F8 47   // прием: 18 байт; 19.08.49.101
// таймаут: 58 мсек


01 34 08 19 04 17 01 19 01 E1 AA   // прием: 11 байт; 19.08.49.101
// таймаут: 58 мсек

время счетчика:   19:08:34 17.01.19
день недели:      4 - четверг
сезонное время:   1 - зима

время компьютера: 19:08:49 17.01.19
разница:           - 15 секунд(а) 


К. трансформации



00 08 02 F7 C1   // передача: 5 байт; 19.08.49.215


00 00 0F 00 AC 02 0D 00 00 08 02 F7 C1 E7 E1   // передача: 15 байт; 19.08.49.215
// приём по количеству байт: 20 из 20

01 00 14 00 AC 01 00 01 00 01 00 00 02 8F 5C 28 16 05 80 50   // прием: 20 байт; 19.08.49.276
// таймаут: 61 мсек


01 00 01 00 01 00 00 02 8F 5C 28 16 05   // прием: 13 байт; 19.08.49.277
// таймаут: 62 мсек

Ki*Ku = 1*1 = 1


К. преобразования



00 08 12 F6 0D   // передача: 5 байт; 19.08.49.386


00 00 0F 00 AC 02 06 00 00 08 12 F6 0D 5D 21   // передача: 15 байт; 19.08.49.386
// приём по количеству байт: 13 из 13

01 00 0D 00 AC 01 00 00 10 00 14 36 99   // прием: 13 байт; 19.08.49.437
// таймаут: 51 мсек


01 00 00 10 00 14   // прием: 6 байт; 19.08.49.437
// таймаут: 51 мсек

Kp = 5000*2 = 10000
*для использования в сумматоре СЭМ+2 К. преобразования необходимо умножать на 2

К. пропорциональности
Ke = Ki*Ku/Kp*2 = 0,0001
Указатель на вершину блоков



00 08 04 77 C3   // передача: 5 байт; 19.08.49.542


00 00 0F 00 AC 02 0A 00 00 08 04 77 C3 91 21   // передача: 15 байт; 19.08.49.542
// приём по количеству байт: 17 из 17

01 00 11 00 AC 01 80 19 17 01 19 7B 98 85 64 F0 FB   // прием: 17 байт; 19.08.49.598
// таймаут: 56 мсек


01 80 19 17 01 19 7B 98 85 64   // прием: 10 байт; 19.08.49.599
// таймаут: 57 мсек


Энергия по часам:
Вершина: 
19:00 17.01.19    1318 0x7B98      переполнение: да 
Вершина с учетом смещения 0: 1318
Заголовок блока



00 06 03 7B 90 08 95 80   // передача: 8 байт; 19.08.49.714


00 00 12 00 AC 02 0B 00 00 06 03 7B 90 08 95 80 05 65   // передача: 18 байт; 19.08.49.714
// приём по количеству байт: 18 из 18

01 00 12 00 AC 01 19 17 01 19 01 1E 69 00 F2 BE F8 47   // прием: 18 байт; 19.08.49.789
// таймаут: 75 мсек


01 19 17 01 19 01 1E 69 00 F2 BE   // прием: 11 байт; 19.08.49.789
// таймаут: 75 мсек


19    17.01.19    1318 0x7B90      1 - зима    период: 30  к.сумма: да 
Данные блока



00 06 03 7B 98 10 92 4A   // передача: 8 байт; 19.08.49.901


00 00 12 00 AC 02 13 00 00 06 03 7B 98 10 92 4A 85 1A   // передача: 18 байт; 19.08.49.901
// приём по количеству байт: 26 из 26

01 00 1A 00 AC 01 80 00 80 00 80 00 80 00 80 00 80 00 80 00 80 00 9B 36 B0 40   // прием: 26 байт; 19.08.49.988
// таймаут: 87 мсек


01 80 00 80 00 80 00 80 00 80 00 80 00 80 00 80 00 9B 36   // прием: 19 байт; 19.08.49.988
// таймаут: 87 мсек

0           0           0           0           
0           0           0           0           
Заголовок блока



00 06 03 7B 78 08 DB 80   // передача: 8 байт; 19.08.50.104


00 00 12 00 AC 02 0B 00 00 06 03 7B 78 08 DB 80 05 65   // передача: 18 байт; 19.08.50.104
// приём по количеству байт: 18 из 18

01 00 12 00 AC 01 18 17 01 19 01 1E 68 00 32 E2 F8 47   // прием: 18 байт; 19.08.50.178
// таймаут: 74 мсек


01 18 17 01 19 01 1E 68 00 32 E2   // прием: 11 байт; 19.08.50.178
// таймаут: 74 мсек


18    17.01.19    1317 0x7B78      1 - зима    период: 30  к.сумма: да 
Данные блока



00 06 03 7B 80 10 98 4A   // передача: 8 байт; 19.08.50.291


00 00 12 00 AC 02 13 00 00 06 03 7B 80 10 98 4A 85 1A   // передача: 18 байт; 19.08.50.291
// приём по количеству байт: 26 из 26

01 00 1A 00 AC 01 80 00 80 00 80 00 80 00 80 77 80 00 80 00 80 1C 9D F8 B0 40   // прием: 26 байт; 19.08.50.367
// таймаут: 76 мсек


01 80 00 80 00 80 00 80 00 80 77 80 00 80 00 80 1C 9D F8   // прием: 19 байт; 19.08.50.367
// таймаут: 76 мсек

0           0           0           0           
119         0           0           28          
Заголовок блока



00 06 03 7B 60 08 D1 80   // передача: 8 байт; 19.08.50.478


00 00 12 00 AC 02 0B 00 00 06 03 7B 60 08 D1 80 05 65   // передача: 18 байт; 19.08.50.478
// приём по количеству байт: 18 из 18

01 00 12 00 AC 01 17 17 01 19 01 1E 67 00 77 52 F8 47   // прием: 18 байт; 19.08.50.541
// таймаут: 63 мсек


01 17 17 01 19 01 1E 67 00 77 52   // прием: 11 байт; 19.08.50.541
// таймаут: 63 мсек


17    17.01.19    1316 0x7B60      1 - зима    период: 30  к.сумма: да 
Данные блока



00 06 03 7B 68 10 D6 4A   // передача: 8 байт; 19.08.50.650


00 00 12 00 AC 02 13 00 00 06 03 7B 68 10 D6 4A 85 1A   // передача: 18 байт; 19.08.50.650
// приём по количеству байт: 26 из 26

01 00 1A 00 AC 01 80 00 80 00 80 00 80 00 80 00 80 00 80 00 80 00 9B 36 B0 40   // прием: 26 байт; 19.08.50.726
// таймаут: 76 мсек


01 80 00 80 00 80 00 80 00 80 00 80 00 80 00 80 00 9B 36   // прием: 19 байт; 19.08.50.726
// таймаут: 76 мсек

0           0           0           0           
0           0           0           0           
Заголовок блока



00 06 03 7B 48 08 CF 80   // передача: 8 байт; 19.08.50.837


00 00 12 00 AC 02 0B 00 00 06 03 7B 48 08 CF 80 05 65   // передача: 18 байт; 19.08.50.837
// приём по количеству байт: 18 из 18

01 00 12 00 AC 01 16 17 01 19 01 1E 66 00 B7 0E F8 47   // прием: 18 байт; 19.08.50.900
// таймаут: 63 мсек


01 16 17 01 19 01 1E 66 00 B7 0E   // прием: 11 байт; 19.08.50.900
// таймаут: 63 мсек


16    17.01.19    1315 0x7B48      1 - зима    период: 30  к.сумма: да 
Данные блока



00 06 03 7B 50 10 C5 8A   // передача: 8 байт; 19.08.51.09


00 00 12 00 AC 02 13 00 00 06 03 7B 50 10 C5 8A 85 1A   // передача: 18 байт; 19.08.51.09
// приём по количеству байт: 26 из 26

01 00 1A 00 AC 01 80 00 80 00 80 00 80 00 80 00 80 00 80 00 80 00 9B 36 B0 40   // прием: 26 байт; 19.08.51.85
// таймаут: 76 мсек


01 80 00 80 00 80 00 80 00 80 00 80 00 80 00 80 00 9B 36   // прием: 19 байт; 19.08.51.85
// таймаут: 76 мсек

0           0           0           0           
0           0           0           0           
Заголовок блока



00 06 03 7B 30 08 ED 80   // передача: 8 байт; 19.08.51.196


00 00 12 00 AC 02 0B 00 00 06 03 7B 30 08 ED 80 05 65   // передача: 18 байт; 19.08.51.196
// приём по количеству байт: 18 из 18

01 00 12 00 AC 01 15 17 01 19 01 1E 65 00 F7 EB F8 47   // прием: 18 байт; 19.08.51.259
// таймаут: 63 мсек


01 15 17 01 19 01 1E 65 00 F7 EB   // прием: 11 байт; 19.08.51.260
// таймаут: 64 мсек


15    17.01.19    1314 0x7B30      1 - зима    период: 30  к.сумма: да 
Данные блока



00 06 03 7B 38 10 EA 4A   // передача: 8 байт; 19.08.51.367


00 00 12 00 AC 02 13 00 00 06 03 7B 38 10 EA 4A 85 1A   // передача: 18 байт; 19.08.51.367
// приём по количеству байт: 26 из 26

01 00 1A 00 AC 01 80 00 80 00 80 00 80 00 80 00 80 00 80 00 80 00 9B 36 B0 40   // прием: 26 байт; 19.08.51.443
// таймаут: 76 мсек


01 80 00 80 00 80 00 80 00 80 00 80 00 80 00 80 00 9B 36   // прием: 19 байт; 19.08.51.443
// таймаут: 76 мсек

0           0           0           0           
0           0           0           0           
Заголовок блока



00 06 03 7B 18 08 F3 80   // передача: 8 байт; 19.08.51.555


00 00 12 00 AC 02 0B 00 00 06 03 7B 18 08 F3 80 05 65   // передача: 18 байт; 19.08.51.555
// приём по количеству байт: 18 из 18

01 00 12 00 AC 01 14 17 01 19 01 1E 64 00 37 B7 F8 47   // прием: 18 байт; 19.08.51.618
// таймаут: 63 мсек


01 14 17 01 19 01 1E 64 00 37 B7   // прием: 11 байт; 19.08.51.618
// таймаут: 63 мсек


14    17.01.19    1313 0x7B18      1 - зима    период: 30  к.сумма: да 
Данные блока



00 06 03 7B 20 10 E0 4A   // передача: 8 байт; 19.08.51.726


00 00 12 00 AC 02 13 00 00 06 03 7B 20 10 E0 4A 85 1A   // передача: 18 байт; 19.08.51.726
// приём по количеству байт: 26 из 26

01 00 1A 00 AC 01 80 00 80 00 80 00 80 00 80 00 80 00 80 00 80 00 9B 36 B0 40   // прием: 26 байт; 19.08.51.802
// таймаут: 76 мсек


01 80 00 80 00 80 00 80 00 80 00 80 00 80 00 80 00 9B 36   // прием: 19 байт; 19.08.51.802
// таймаут: 76 мсек

0           0           0           0           
0           0           0           0           
Заголовок блока



00 06 03 7B 00 08 F9 80   // передача: 8 байт; 19.08.51.913


00 00 12 00 AC 02 0B 00 00 06 03 7B 00 08 F9 80 05 65   // передача: 18 байт; 19.08.51.913
// приём по количеству байт: 18 из 18

01 00 12 00 AC 01 13 17 01 19 01 1E 63 00 74 61 F8 47   // прием: 18 байт; 19.08.51.976
// таймаут: 63 мсек


01 13 17 01 19 01 1E 63 00 74 61   // прием: 11 байт; 19.08.51.976
// таймаут: 63 мсек


13    17.01.19    1312 0x7B00      1 - зима    период: 30  к.сумма: да 
Данные блока



00 06 03 7B 08 10 FE 4A   // передача: 8 байт; 19.08.52.85


00 00 12 00 AC 02 13 00 00 06 03 7B 08 10 FE 4A 85 1A   // передача: 18 байт; 19.08.52.85
// приём по количеству байт: 8 из 0

01 00 1A 00 AC 01 80 00   // прием: 8 байт; 19.08.52.137
// таймаут: 52 мсек

Ошибка туннеля - нет ответа, повтор: 1
Ошибка туннеля - нет ответа, повтор: 1



00 06 03 7B 08 10 FE 4A   // передача: 8 байт; 19.08.52.241


00 00 12 00 AC 02 00 00 00 06 03 7B 08 10 FE 4A 74 80   // передача: 18 байт; 19.08.52.241
// приём по количеству байт: 18 из 7

80 00 80 00 80 00 80 00 80 00 80 00 80 00 9B 36 B0 40   // прием: 18 байт; 19.08.52.241
// таймаут: 0 мсек

Ошибка туннеля - нет ответа, повтор: 2
Ошибка туннеля - нет ответа, повтор: 2



00 06 03 7B 08 10 FE 4A   // передача: 8 байт; 19.08.52.350


00 00 12 00 AC 02 07 00 00 06 03 7B 08 10 FE 4A C5 5A   // передача: 18 байт; 19.08.52.350
// приём по количеству байт: 14 из 14

01 00 0E 00 AC 01 80 00 80 00 80 00 B5 19   // прием: 14 байт; 19.08.52.406
// таймаут: 56 мсек


01 80 00 80 00 80 00   // прием: 7 байт; 19.08.52.406
// таймаут: 56 мсек


// версия от 6 сентября 2014 года
// приём по таймауту: 1000 мс


Cчетчик: номер 0

Открытие канала



00 01 30 30 30 30 30 30 0E 24   // передача: 10 байт; 19.09.00.477


00 00 14 00 AC 02 04 00 00 01 30 30 30 30 30 30 0E 24 54 CD   // передача: 20 байт; 19.09.00.477
// приём по количеству байт: 11 из 11

01 00 0B 00 AC 01 00 00 20 2D 9C   // прием: 11 байт; 19.09.00.532
// таймаут: 55 мсек


01 00 00 20   // прием: 4 байт; 19.09.00.532
// таймаут: 55 мсек

Канал открыт успешно


Время



00 04 00 73 00   // передача: 5 байт; 19.09.00.633


00 00 0F 00 AC 02 0B 00 00 04 00 73 00 81 E1   // передача: 15 байт; 19.09.00.633
// приём по количеству байт: 18 из 18

01 00 12 00 AC 01 46 08 19 04 17 01 19 01 67 57 F8 47   // прием: 18 байт; 19.09.00.691
// таймаут: 58 мсек


01 46 08 19 04 17 01 19 01 67 57   // прием: 11 байт; 19.09.00.691
// таймаут: 58 мсек

время счетчика:   19:08:46 17.01.19
день недели:      4 - четверг
сезонное время:   1 - зима

время компьютера: 19:09:00 17.01.19
разница:           - 14 секунд(а) 


К. трансформации



00 08 02 F7 C1   // передача: 5 байт; 19.09.00.805


00 00 0F 00 AC 02 0D 00 00 08 02 F7 C1 E7 E1   // передача: 15 байт; 19.09.00.805
// приём по количеству байт: 20 из 20

01 00 14 00 AC 01 00 01 00 01 00 00 02 8F 5C 28 16 05 80 50   // прием: 20 байт; 19.09.00.866
// таймаут: 61 мсек


01 00 01 00 01 00 00 02 8F 5C 28 16 05   // прием: 13 байт; 19.09.00.866
// таймаут: 61 мсек

Ki*Ku = 1*1 = 1


К. преобразования



00 08 12 F6 0D   // передача: 5 байт; 19.09.00.977


00 00 0F 00 AC 02 06 00 00 08 12 F6 0D 5D 21   // передача: 15 байт; 19.09.00.977
// приём по количеству байт: 13 из 13

01 00 0D 00 AC 01 00 00 10 00 14 36 99   // прием: 13 байт; 19.09.01.27
// таймаут: 50 мсек


01 00 00 10 00 14   // прием: 6 байт; 19.09.01.28
// таймаут: 51 мсек

Kp = 5000*2 = 10000
*для использования в сумматоре СЭМ+2 К. преобразования необходимо умножать на 2

К. пропорциональности
Ke = Ki*Ku/Kp*2 = 0,0001



00 05 00 00 10 25   // передача: 6 байт; 19.09.01.133


00 00 10 00 AC 02 13 00 00 05 00 00 10 25 F4 21   // передача: 16 байт; 19.09.01.133
// приём по количеству байт: 26 из 26

01 00 1A 00 AC 01 00 02 43 5C 00 00 00 00 00 00 F0 A0 00 00 36 37 F2 61 B0 40   // прием: 26 байт; 19.09.01.205
// таймаут: 72 мсек


01 00 02 43 5C 00 00 00 00 00 00 F0 A0 00 00 36 37 F2 61   // прием: 19 байт; 19.09.01.206
// таймаут: 73 мсек



Импульсы всего
            всего       
канал A+    148316      
канал A-    0           
канал R+    61600       
канал R-    13879       

Энергия всего
            всего       
канал A+    14,8316     
канал A-    0,0000      
канал R+    6,1600      
канал R-    1,3879      



00 05 00 01 D1 E5   // передача: 6 байт; 19.09.01.367


00 00 10 00 AC 02 13 00 00 05 00 01 D1 E5 F4 21   // передача: 16 байт; 19.09.01.367
// приём по количеству байт: 26 из 26

01 00 1A 00 AC 01 00 00 F0 AD 00 00 00 00 00 00 5C AC 00 00 17 8D 11 ED B0 40   // прием: 26 байт; 19.09.01.439
// таймаут: 72 мсек


01 00 00 F0 AD 00 00 00 00 00 00 5C AC 00 00 17 8D 11 ED   // прием: 19 байт; 19.09.01.440
// таймаут: 73 мсек




00 05 00 02 91 E4   // передача: 6 байт; 19.09.01.538


00 00 10 00 AC 02 13 00 00 05 00 02 91 E4 F4 21   // передача: 16 байт; 19.09.01.538
// приём по количеству байт: 26 из 26

01 00 1A 00 AC 01 00 00 78 5B 00 00 00 00 00 00 4C DD 00 00 03 7C 60 4D B0 40   // прием: 26 байт; 19.09.01.610
// таймаут: 72 мсек


01 00 00 78 5B 00 00 00 00 00 00 4C DD 00 00 03 7C 60 4D   // прием: 19 байт; 19.09.01.610
// таймаут: 72 мсек




00 05 00 03 50 24   // передача: 6 байт; 19.09.01.710


00 00 10 00 AC 02 13 00 00 05 00 03 50 24 F4 21   // передача: 16 байт; 19.09.01.710
// приём по количеству байт: 26 из 26

01 00 1A 00 AC 01 00 00 DA 54 00 00 00 00 00 00 47 17 00 00 1B 2F 04 76 B0 40   // прием: 26 байт; 19.09.01.782
// таймаут: 72 мсек


01 00 00 DA 54 00 00 00 00 00 00 47 17 00 00 1B 2F 04 76   // прием: 19 байт; 19.09.01.782
// таймаут: 72 мсек




00 05 00 04 11 E6   // передача: 6 байт; 19.09.01.881


00 00 10 00 AC 02 13 00 00 05 00 04 11 E6 F4 21   // передача: 16 байт; 19.09.01.881
// приём по количеству байт: 26 из 26

01 00 1A 00 AC 01 00 00 00 00 00 00 00 00 00 00 00 00 00 00 00 00 21 E0 B0 40   // прием: 26 байт; 19.09.01.954
// таймаут: 73 мсек


01 00 00 00 00 00 00 00 00 00 00 00 00 00 00 00 00 21 E0   // прием: 19 байт; 19.09.01.954
// таймаут: 73 мсек



Импульсы всего (по тарифам)
            тариф 1     тариф 2     тариф 3     тариф 4     всего       
канал A+    61613       30811       55892       0           148316      
канал A-    0           0           0           0           0           
канал R+    23724       19677       18199       0           61600       
канал R-    6029        892         6959        0           13880       

Энергия всего (по тарифам)
            тариф 1     тариф 2     тариф 3     тариф 4     всего       
канал A+    6,1613      3,0811      5,5892      0,0000      14,8316     
канал A-    0,0000      0,0000      0,0000      0,0000      0,0000      
канал R+    2,3724      1,9677      1,8199      0,0000      6,1600      
канал R-    0,6029      0,0892      0,6959      0,0000      1,3880      


Начало опроса: 19:09:00 17.01.19
Конец опроса:  19:09:02 17.01.19
Длительность опроса: - 2 секунд(а) 
 
Опрос успешно завершен

// версия от 6 сентября 2014 года


Cчетчик: номер 0

Открытие канала



00 01 30 30 30 30 30 30 0E 24   // передача: 10 байт; 19.09.10.25


00 00 14 00 AC 02 04 00 00 01 30 30 30 30 30 30 0E 24 54 CD   // передача: 20 байт; 19.09.10.25
// приём по количеству байт: 11 из 11

01 00 0B 00 AC 01 00 00 20 2D 9C   // прием: 11 байт; 19.09.10.80
// таймаут: 55 мсек


01 00 00 20   // прием: 4 байт; 19.09.10.80
// таймаут: 55 мсек

Канал открыт успешно


Время



00 04 00 73 00   // передача: 5 байт; 19.09.10.181


00 00 0F 00 AC 02 0B 00 00 04 00 73 00 81 E1   // передача: 15 байт; 19.09.10.181
// приём по количеству байт: 18 из 18

01 00 12 00 AC 01 55 08 19 04 17 01 19 01 26 4E F8 47   // прием: 18 байт; 19.09.10.239
// таймаут: 58 мсек


01 55 08 19 04 17 01 19 01 26 4E   // прием: 11 байт; 19.09.10.239
// таймаут: 58 мсек

время счетчика:   19:08:55 17.01.19
день недели:      4 - четверг
сезонное время:   1 - зима

время компьютера: 19:09:10 17.01.19
разница:           - 15 секунд(а) 


К. трансформации



00 08 02 F7 C1   // передача: 5 байт; 19.09.10.353


00 00 0F 00 AC 02 0D 00 00 08 02 F7 C1 E7 E1   // передача: 15 байт; 19.09.10.353
// приём по количеству байт: 20 из 20

01 00 14 00 AC 01 00 01 00 01 00 00 02 8F 5C 28 16 05 80 50   // прием: 20 байт; 19.09.10.414
// таймаут: 61 мсек


01 00 01 00 01 00 00 02 8F 5C 28 16 05   // прием: 13 байт; 19.09.10.415
// таймаут: 62 мсек

Ki*Ku = 1*1 = 1


К. преобразования



00 08 12 F6 0D   // передача: 5 байт; 19.09.10.524


00 00 0F 00 AC 02 06 00 00 08 12 F6 0D 5D 21   // передача: 15 байт; 19.09.10.524
// приём по количеству байт: 13 из 13

01 00 0D 00 AC 01 00 00 10 00 14 36 99   // прием: 13 байт; 19.09.10.574
// таймаут: 50 мсек


01 00 00 10 00 14   // прием: 6 байт; 19.09.10.575
// таймаут: 51 мсек

Kp = 5000*2 = 10000
*для использования в сумматоре СЭМ+2 К. преобразования необходимо умножать на 2

К. пропорциональности
Ke = Ki*Ku/Kp*2 = 0,0001



00 05 31 00 05 B5   // передача: 6 байт; 19.09.10.680


00 00 10 00 AC 02 13 00 00 05 31 00 05 B5 F4 21   // передача: 16 байт; 19.09.10.680
// приём по количеству байт: 26 из 26

01 00 1A 00 AC 01 00 01 DE 75 00 00 00 00 00 00 B3 40 00 00 34 5B C1 FC B0 40   // прием: 26 байт; 19.09.10.752
// таймаут: 72 мсек


01 00 01 DE 75 00 00 00 00 00 00 B3 40 00 00 34 5B C1 FC   // прием: 19 байт; 19.09.10.753
// таймаут: 73 мсек




00 05 32 00 05 45   // передача: 6 байт; 19.09.10.852


00 00 10 00 AC 02 13 00 00 05 32 00 05 45 F4 21   // передача: 16 байт; 19.09.10.852
// приём по таймауту: 1000 мс

01 00 08 00 AC 05 BE A9   // прием: 8 байт; 19.09.12.304
// таймаут: 1452 мсек


05   // прием: 1 байт; 19.09.12.304
// таймаут: 1452 мсек

Ошибка контрольной суммы, повтор: 1
Ошибка контрольной суммы, повтор: 1



00 05 32 00 05 45   // передача: 6 байт; 19.09.12.412


00 00 10 00 AC 02 13 00 00 05 32 00 05 45 F4 21   // передача: 16 байт; 19.09.12.412
// приём по таймауту: 1000 мс

01 00 08 00 AC 05 BE A9   // прием: 8 байт; 19.09.13.864
// таймаут: 1452 мсек


05   // прием: 1 байт; 19.09.13.864
// таймаут: 1452 мсек

Ошибка контрольной суммы, повтор: 2
Ошибка контрольной суммы, повтор: 2



00 05 32 00 05 45   // передача: 6 байт; 19.09.13.972


00 00 10 00 AC 02 13 00 00 05 32 00 05 45 F4 21   // передача: 16 байт; 19.09.13.972
// приём по таймауту: 1000 мс

01 00 08 00 AC 05 BE A9   // прием: 8 байт; 19.09.15.423
// таймаут: 1451 мсек


05   // прием: 1 байт; 19.09.15.423
// таймаут: 1451 мсек

Ошибка контрольной суммы, повтор: 3
Ошибка контрольной суммы, повтор: 3



00 05 32 00 05 45   // передача: 6 байт; 19.09.15.532


00 00 10 00 AC 02 13 00 00 05 32 00 05 45 F4 21   // передача: 16 байт; 19.09.15.532
// приём по таймауту: 1000 мс

01 00 08 00 AC 05 BE A9   // прием: 8 байт; 19.09.17.03
// таймаут: 1471 мсек


05   // прием: 1 байт; 19.09.17.29
// таймаут: 1497 мсек

Ошибка контрольной суммы, повтор: 4
Ошибка контрольной суммы, повтор: 4



00 05 32 00 05 45   // передача: 6 байт; 19.09.17.200


00 00 10 00 AC 02 13 00 00 05 32 00 05 45 F4 21   // передача: 16 байт; 19.09.17.225
// приём по таймауту: 1000 мс

01 00 08 00 AC 05 BE A9   // прием: 8 байт; 19.09.18.665
// таймаут: 1440 мсек


05   // прием: 1 байт; 19.09.18.693
// таймаут: 1468 мсек

Ошибка контрольной суммы, повтор: 5
Ошибка контрольной суммы, повтор: 5



00 05 32 00 05 45   // передача: 6 байт; 19.09.18.853


00 00 10 00 AC 02 13 00 00 05 32 00 05 45 F4 21   // передача: 16 байт; 19.09.18.876

// версия от 6 сентября 2014 года
