

Cчетчик: номер 0

Открытие канала



00 01 30 30 30 30 30 30 0E 24   // передача: 10 байт; 19.46.08.906


00 00 14 00 AC 03 04 00 00 01 30 30 30 30 30 30 0E 24 56 4C   // передача: 20 байт; 19.46.08.906
// приём по количеству байт: 11 из 11

01 00 0B 00 AC 00 00 01 B0 2D 9C   // прием: 11 байт; 19.46.08.976
// таймаут: 70 мсек


00 00 01 B0   // прием: 4 байт; 19.46.08.976
// таймаут: 70 мсек

Канал открыт успешно


Время



00 04 00 73 00   // передача: 5 байт; 19.46.09.78


00 00 0F 00 AC 03 0B 00 00 04 00 73 00 40 2D   // передача: 15 байт; 19.46.09.78
// приём по количеству байт: 18 из 18

01 00 12 00 AC 00 00 46 19 01 21 01 19 00 42 91 F8 47   // прием: 18 байт; 19.46.09.150
// таймаут: 72 мсек


00 00 46 19 01 21 01 19 00 42 91   // прием: 11 байт; 19.46.09.151
// таймаут: 73 мсек

время счетчика:   19:46:00 21.01.19
день недели:      1 - понедельник
сезонное время:   0 - лето

время компьютера: 19:46:09 21.01.19
разница:           - 9 секунд(а) 


К. трансформации



00 08 02 F7 C1   // передача: 5 байт; 19.46.09.265


00 00 0F 00 AC 03 0D 00 00 08 02 F7 C1 26 2D   // передача: 15 байт; 19.46.09.265
// приём по количеству байт: 20 из 20

01 00 14 00 AC 00 00 01 00 01 00 00 00 00 00 00 1B B4 80 50   // прием: 20 байт; 19.46.09.344
// таймаут: 79 мсек


00 00 01 00 01 00 00 00 00 00 00 1B B4   // прием: 13 байт; 19.46.09.345
// таймаут: 80 мсек

Ki*Ku = 1*1 = 1


К. преобразования



00 08 12 F6 0D   // передача: 5 байт; 19.46.09.452


00 00 0F 00 AC 03 06 00 00 08 12 F6 0D 9C ED   // передача: 15 байт; 19.46.09.452
// приём по количеству байт: 13 из 13

01 00 0D 00 AC 00 64 02 00 40 9B 36 99   // прием: 13 байт; 19.46.09.515
// таймаут: 63 мсек


00 64 02 00 40 9B   // прием: 6 байт; 19.46.09.516
// таймаут: 64 мсек

Kp = 1250*2 = 2500
*для использования в сумматоре СЭМ+2 К. преобразования необходимо умножать на 2

К. пропорциональности
Ke = Ki*Ku/Kp*2 = 0,0004



00 05 00 00 10 25   // передача: 6 байт; 19.46.09.624


00 00 10 00 AC 03 13 00 00 05 00 00 10 25 F9 B1   // передача: 16 байт; 19.46.09.624
// приём по количеству байт: 26 из 26

01 00 1A 00 AC 00 00 EA 70 B9 00 87 10 CD 00 02 30 41 00 0E B2 34 7C 4A B0 40   // прием: 26 байт; 19.46.09.720
// таймаут: 96 мсек


00 00 EA 70 B9 00 87 10 CD 00 02 30 41 00 0E B2 34 7C 4A   // прием: 19 байт; 19.46.09.720
// таймаут: 96 мсек



Импульсы всего
            всего       
канал A+    15364281    
канал A-    8851661     
канал R+    143425      
канал R-    963124      

Энергия всего
            всего       
канал A+    6145,7124   
канал A-    3540,6644   
канал R+    57,3700     
канал R-    385,2496    



00 05 40 00 21 E5   // передача: 6 байт; 19.46.09.873


00 00 10 00 AC 03 13 00 00 05 40 00 21 E5 F9 B1   // передача: 16 байт; 19.46.09.873
// приём по количеству байт: 26 из 26

01 00 1A 00 AC 00 00 00 01 9F 00 00 00 00 00 00 00 00 00 00 00 E3 E4 66 B0 40   // прием: 26 байт; 19.46.09.983
// таймаут: 110 мсек


00 00 00 01 9F 00 00 00 00 00 00 00 00 00 00 00 E3 E4 66   // прием: 19 байт; 19.46.09.983
// таймаут: 110 мсек



Импульсы за текущие сутки
            всего       
канал A+    415         
канал A-    0           
канал R+    0           
канал R-    227         

Энергия за текущие сутки
            всего       
канал A+    0,1660      
канал A-    0,0000      
канал R+    0,0000      
канал R-    0,0908      



00 05 50 00 2C 25   // передача: 6 байт; 19.46.10.170


00 00 10 00 AC 03 13 00 00 05 50 00 2C 25 F9 B1   // передача: 16 байт; 19.46.10.170
// приём по количеству байт: 26 из 26

01 00 1A 00 AC 00 00 00 07 40 00 00 00 00 00 00 00 00 00 00 03 D6 09 19 B0 40   // прием: 26 байт; 19.46.10.266
// таймаут: 96 мсек


00 00 00 07 40 00 00 00 00 00 00 00 00 00 00 03 D6 09 19   // прием: 19 байт; 19.46.10.266
// таймаут: 96 мсек



Импульсы за предыдущие сутки
            всего       
канал A+    1856        
канал A-    0           
канал R+    0           
канал R-    982         

Энергия за предыдущие сутки
            всего       
канал A+    0,7424      
канал A-    0,0000      
канал R+    0,0000      
канал R-    0,3928      


Начало опроса: 19:46:08 21.01.19
Конец опроса:  19:46:10 21.01.19
Длительность опроса: - 2 секунд(а) 
 
Опрос успешно завершен


Cчетчик: номер 0

Открытие канала



00 01 30 30 30 30 30 30 0E 24   // передача: 10 байт; 19.46.14.491


00 00 14 00 AC 03 04 00 00 01 30 30 30 30 30 30 0E 24 56 4C   // передача: 20 байт; 19.46.14.491
// приём по количеству байт: 11 из 11

01 00 0B 00 AC 00 00 01 B0 2D 9C   // прием: 11 байт; 19.46.14.560
// таймаут: 69 мсек


00 00 01 B0   // прием: 4 байт; 19.46.14.560
// таймаут: 69 мсек

Канал открыт успешно


Время



00 04 00 73 00   // передача: 5 байт; 19.46.14.678


00 00 0F 00 AC 03 0B 00 00 04 00 73 00 40 2D   // передача: 15 байт; 19.46.14.678
// приём по количеству байт: 18 из 18

01 00 12 00 AC 00 06 46 19 01 21 01 19 00 C2 BB F8 47   // прием: 18 байт; 19.46.14.751
// таймаут: 73 мсек


00 06 46 19 01 21 01 19 00 C2 BB   // прием: 11 байт; 19.46.14.751
// таймаут: 73 мсек

время счетчика:   19:46:06 21.01.19
день недели:      1 - понедельник
сезонное время:   0 - лето

время компьютера: 19:46:14 21.01.19
разница:           - 8 секунд(а) 


К. трансформации



00 08 02 F7 C1   // передача: 5 байт; 19.46.14.896


00 00 0F 00 AC 03 0D 00 00 08 02 F7 C1 26 2D   // передача: 15 байт; 19.46.14.896
// приём по количеству байт: 20 из 20

01 00 14 00 AC 00 00 01 00 01 00 00 00 00 00 00 1B B4 80 50   // прием: 20 байт; 19.46.14.983
// таймаут: 87 мсек


00 00 01 00 01 00 00 00 00 00 00 1B B4   // прием: 13 байт; 19.46.14.983
// таймаут: 87 мсек

Ki*Ku = 1*1 = 1


К. преобразования



00 08 12 F6 0D   // передача: 5 байт; 19.46.15.99


00 00 0F 00 AC 03 06 00 00 08 12 F6 0D 9C ED   // передача: 15 байт; 19.46.15.99
// приём по количеству байт: 13 из 13

01 00 0D 00 AC 00 64 02 00 40 9B 36 99   // прием: 13 байт; 19.46.15.163
// таймаут: 64 мсек


00 64 02 00 40 9B   // прием: 6 байт; 19.46.15.163
// таймаут: 64 мсек

Kp = 1250*2 = 2500
*для использования в сумматоре СЭМ+2 К. преобразования необходимо умножать на 2

К. пропорциональности
Ke = Ki*Ku/Kp*2 = 0,0004



00 05 00 00 10 25   // передача: 6 байт; 19.46.15.286


00 00 10 00 AC 03 13 00 00 05 00 00 10 25 F9 B1   // передача: 16 байт; 19.46.15.286
// приём по количеству байт: 26 из 26

01 00 1A 00 AC 00 00 EA 70 B9 00 87 10 CD 00 02 30 41 00 0E B2 34 7C 4A B0 40   // прием: 26 байт; 19.46.15.380
// таймаут: 94 мсек


00 00 EA 70 B9 00 87 10 CD 00 02 30 41 00 0E B2 34 7C 4A   // прием: 19 байт; 19.46.15.381
// таймаут: 95 мсек



Импульсы всего
            всего       
канал A+    15364281    
канал A-    8851661     
канал R+    143425      
канал R-    963124      

Энергия всего
            всего       
канал A+    6145,7124   
канал A-    3540,6644   
канал R+    57,3700     
канал R-    385,2496    



00 05 40 00 21 E5   // передача: 6 байт; 19.46.15.551


00 00 10 00 AC 03 13 00 00 05 40 00 21 E5 F9 B1   // передача: 16 байт; 19.46.15.551
// приём по количеству байт: 26 из 26

01 00 1A 00 AC 00 00 00 01 9F 00 00 00 00 00 00 00 00 00 00 00 E3 E4 66 B0 40   // прием: 26 байт; 19.46.15.646
// таймаут: 95 мсек


00 00 00 01 9F 00 00 00 00 00 00 00 00 00 00 00 E3 E4 66   // прием: 19 байт; 19.46.15.646
// таймаут: 95 мсек



Импульсы за текущие сутки
            всего       
канал A+    415         
канал A-    0           
канал R+    0           
канал R-    227         

Энергия за текущие сутки
            всего       
канал A+    0,1660      
канал A-    0,0000      
канал R+    0,0000      
канал R-    0,0908      



00 05 50 00 2C 25   // передача: 6 байт; 19.46.15.817


00 00 10 00 AC 03 13 00 00 05 50 00 2C 25 F9 B1   // передача: 16 байт; 19.46.15.817
// приём по количеству байт: 26 из 26

01 00 1A 00 AC 00 00 00 07 40 00 00 00 00 00 00 00 00 00 00 03 D6 09 19 B0 40   // прием: 26 байт; 19.46.15.912
// таймаут: 95 мсек


00 00 00 07 40 00 00 00 00 00 00 00 00 00 00 03 D6 09 19   // прием: 19 байт; 19.46.15.912
// таймаут: 95 мсек



Импульсы за предыдущие сутки
            всего       
канал A+    1856        
канал A-    0           
канал R+    0           
канал R-    982         

Энергия за предыдущие сутки
            всего       
канал A+    0,7424      
канал A-    0,0000      
канал R+    0,0000      
канал R-    0,3928      
Указатель на вершину блоков



00 08 04 77 C3   // передача: 5 байт; 19.46.16.97


00 00 0F 00 AC 03 0A 00 00 08 04 77 C3 50 ED   // передача: 15 байт; 19.46.16.97
// приём по количеству байт: 17 из 17

01 00 11 00 AC 00 B0 19 21 01 19 9B E0 F5 4D F0 FB   // прием: 17 байт; 19.46.16.168
// таймаут: 71 мсек


00 B0 19 21 01 19 9B E0 F5 4D   // прием: 10 байт; 19.46.16.168
// таймаут: 71 мсек


Энергия по часам:
Вершина: 
19:30 21.01.19    1662 0x9BE0      переполнение: да 
Вершина с учетом смещения 0: 1662
Заголовок блока



00 06 03 9B D0 08 A5 B6   // передача: 8 байт; 19.46.16.300


00 00 12 00 AC 03 0B 00 00 06 03 9B D0 08 A5 B6 01 99   // передача: 18 байт; 19.46.16.300
// приём по количеству байт: 18 из 18

01 00 12 00 AC 00 19 21 01 19 00 1E 72 00 A2 21 F8 47   // прием: 18 байт; 19.46.16.381
// таймаут: 81 мсек


00 19 21 01 19 00 1E 72 00 A2 21   // прием: 11 байт; 19.46.16.381
// таймаут: 81 мсек


19    21.01.19    1662 0x9BD0      0 - лето    период: 30  к.сумма: да 
Данные блока



00 06 03 9B D8 10 A2 7C   // передача: 8 байт; 19.46.16.503


00 00 12 00 AC 03 13 00 00 06 03 9B D8 10 A2 7C 81 E6   // передача: 18 байт; 19.46.16.503
// приём по количеству байт: 26 из 26

01 00 1A 00 AC 00 00 8B 00 00 00 00 00 49 03 69 00 00 00 06 00 09 79 90 B0 40   // прием: 26 байт; 19.46.16.602
// таймаут: 99 мсек


00 00 8B 00 00 00 00 00 49 03 69 00 00 00 06 00 09 79 90   // прием: 19 байт; 19.46.16.602
// таймаут: 99 мсек

139         0           0           73          
873         0           6           9           
Заголовок блока



00 06 03 9B B8 08 8A 76   // передача: 8 байт; 19.46.16.721


00 00 12 00 AC 03 0B 00 00 06 03 9B B8 08 8A 76 01 99   // передача: 18 байт; 19.46.16.721
// приём по количеству байт: 18 из 18

01 00 12 00 AC 00 18 21 01 19 00 1E 71 00 63 1D F8 47   // прием: 18 байт; 19.46.16.802
// таймаут: 81 мсек


00 18 21 01 19 00 1E 71 00 63 1D   // прием: 11 байт; 19.46.16.802
// таймаут: 81 мсек


18    21.01.19    1661 0x9BB8      0 - лето    период: 30  к.сумма: да 
Данные блока



00 06 03 9B C0 10 A8 7C   // передача: 8 байт; 19.46.16.924


00 00 12 00 AC 03 13 00 00 06 03 9B C0 10 A8 7C 81 E6   // передача: 18 байт; 19.46.16.924
// приём по количеству байт: 26 из 26

01 00 1A 00 AC 00 00 00 00 00 00 00 00 00 00 25 00 00 00 00 00 13 45 7F B0 40   // прием: 26 байт; 19.46.17.23
// таймаут: 99 мсек


00 00 00 00 00 00 00 00 00 00 25 00 00 00 00 00 13 45 7F   // прием: 19 байт; 19.46.17.24
// таймаут: 100 мсек

0           0           0           0           
37          0           0           19          
Заголовок блока



00 06 03 9B A0 08 80 76   // передача: 8 байт; 19.46.17.143


00 00 12 00 AC 03 0B 00 00 06 03 9B A0 08 80 76 01 99   // передача: 18 байт; 19.46.17.143
// приём по количеству байт: 18 из 18

01 00 12 00 AC 00 08 21 01 19 00 1E 61 00 6F D1 F8 47   // прием: 18 байт; 19.46.17.229
// таймаут: 86 мсек


00 08 21 01 19 00 1E 61 00 6F D1   // прием: 11 байт; 19.46.17.229
// таймаут: 86 мсек


08    21.01.19    1660 0x9BA0      0 - лето    период: 30  к.сумма: да 
Данные блока



00 06 03 9B A8 10 87 BC   // передача: 8 байт; 19.46.17.345


00 00 12 00 AC 03 13 00 00 06 03 9B A8 10 87 BC 81 E6   // передача: 18 байт; 19.46.17.345
// приём по количеству байт: 26 из 26

01 00 1A 00 AC 00 00 3C 00 00 00 00 00 22 00 00 00 00 00 00 00 00 CC C0 B0 40   // прием: 26 байт; 19.46.17.456
// таймаут: 111 мсек


00 00 3C 00 00 00 00 00 22 00 00 00 00 00 00 00 00 CC C0   // прием: 19 байт; 19.46.17.457
// таймаут: 112 мсек

60          0           0           34          
0           0           0           0           
Заголовок блока



00 06 03 9B 88 08 9E 76   // передача: 8 байт; 19.46.17.579


00 00 12 00 AC 03 0B 00 00 06 03 9B 88 08 9E 76 01 99   // передача: 18 байт; 19.46.17.579
// приём по количеству байт: 18 из 18

01 00 12 00 AC 00 07 21 01 19 00 1E 60 FF 6E 41 F8 47   // прием: 18 байт; 19.46.17.661
// таймаут: 82 мсек


00 07 21 01 19 00 1E 60 FF 6E 41   // прием: 11 байт; 19.46.17.661
// таймаут: 82 мсек


07    21.01.19    1659 0x9B88      0 - лето    период: 30  к.сумма: да 
Данные блока



00 06 03 9B 90 10 94 7C   // передача: 8 байт; 19.46.17.782


00 00 12 00 AC 03 13 00 00 06 03 9B 90 10 94 7C 81 E6   // передача: 18 байт; 19.46.17.782
// приём по количеству байт: 26 из 26

01 00 1A 00 AC 00 00 00 00 00 00 00 00 00 00 6F 00 00 00 00 00 3E 6E A6 B0 40   // прием: 26 байт; 19.46.17.882
// таймаут: 100 мсек


00 00 00 00 00 00 00 00 00 00 6F 00 00 00 00 00 3E 6E A6   // прием: 19 байт; 19.46.17.882
// таймаут: 100 мсек

0           0           0           0           
111         0           0           62          
Заголовок блока



00 06 03 9B 70 08 DD B6   // передача: 8 байт; 19.46.18.01


00 00 12 00 AC 03 0B 00 00 06 03 9B 70 08 DD B6 01 99   // передача: 18 байт; 19.46.18.01
// приём по количеству байт: 18 из 18

01 00 12 00 AC 00 20 19 01 19 00 1E 71 00 D8 6C F8 47   // прием: 18 байт; 19.46.18.82
// таймаут: 81 мсек


00 20 19 01 19 00 1E 71 00 D8 6C   // прием: 11 байт; 19.46.18.82
// таймаут: 81 мсек


20    19.01.19    1658 0x9B70      0 - лето    период: 30  к.сумма: да 
Данные блока



00 06 03 9B 78 10 DA 7C   // передача: 8 байт; 19.46.18.203


00 00 12 00 AC 03 13 00 00 06 03 9B 78 10 DA 7C 81 E6   // передача: 18 байт; 19.46.18.203
// приём по количеству байт: 26 из 26

01 00 1A 00 AC 00 00 65 00 00 00 00 00 31 00 00 00 00 00 00 00 00 8C CA B0 40   // прием: 26 байт; 19.46.18.303
// таймаут: 100 мсек


00 00 65 00 00 00 00 00 31 00 00 00 00 00 00 00 00 8C CA   // прием: 19 байт; 19.46.18.303
// таймаут: 100 мсек

101         0           0           49          
0           0           0           0           
Заголовок блока



00 06 03 9B 58 08 C3 B6   // передача: 8 байт; 19.46.18.422


00 00 12 00 AC 03 0B 00 00 06 03 9B 58 08 C3 B6 01 99   // передача: 18 байт; 19.46.18.422
// приём по количеству байт: 18 из 18

01 00 12 00 AC 00 19 19 01 19 00 1E 6A 00 11 E2 F8 47   // прием: 18 байт; 19.46.18.503
// таймаут: 81 мсек


00 19 19 01 19 00 1E 6A 00 11 E2   // прием: 11 байт; 19.46.18.503
// таймаут: 81 мсек


19    19.01.19    1657 0x9B58      0 - лето    период: 30  к.сумма: да 
Данные блока



00 06 03 9B 60 10 D0 7C   // передача: 8 байт; 19.46.18.626


00 00 12 00 AC 03 13 00 00 06 03 9B 60 10 D0 7C 81 E6   // передача: 18 байт; 19.46.18.626
// приём по количеству байт: 26 из 26

01 00 1A 00 AC 00 00 93 00 00 00 00 00 4C 00 08 00 00 00 00 00 04 4F DD B0 40   // прием: 26 байт; 19.46.18.725
// таймаут: 99 мсек


00 00 93 00 00 00 00 00 4C 00 08 00 00 00 00 00 04 4F DD   // прием: 19 байт; 19.46.18.726
// таймаут: 100 мсек

147         0           0           76          
8           0           0           4           
Заголовок блока



00 06 03 9B 40 08 C9 B6   // передача: 8 байт; 19.46.18.844


00 00 12 00 AC 03 0B 00 00 06 03 9B 40 08 C9 B6 01 99   // передача: 18 байт; 19.46.18.844
// приём по количеству байт: 18 из 18

01 00 12 00 AC 00 18 19 01 19 00 1E 69 00 D0 DE F8 47   // прием: 18 байт; 19.46.18.925
// таймаут: 81 мсек


00 18 19 01 19 00 1E 69 00 D0 DE   // прием: 11 байт; 19.46.18.926
// таймаут: 82 мсек


18    19.01.19    1656 0x9B40      0 - лето    период: 30  к.сумма: да 
Данные блока



00 06 03 9B 48 10 CE 7C   // передача: 8 байт; 19.46.19.47


00 00 12 00 AC 03 13 00 00 06 03 9B 48 10 CE 7C 81 E6   // передача: 18 байт; 19.46.19.47
// приём по количеству байт: 26 из 26

01 00 1A 00 AC 00 00 8E 00 00 00 00 00 49 00 96 00 00 00 00 00 4E 53 BA B0 40   // прием: 26 байт; 19.46.19.147
// таймаут: 100 мсек


00 00 8E 00 00 00 00 00 49 00 96 00 00 00 00 00 4E 53 BA   // прием: 19 байт; 19.46.19.147
// таймаут: 100 мсек

142         0           0           73          
150         0           0           78          
Заголовок блока



00 06 03 9B 28 08 E6 76   // передача: 8 байт; 19.46.19.265


00 00 12 00 AC 03 0B 00 00 06 03 9B 28 08 E6 76 01 99   // передача: 18 байт; 19.46.19.265
// приём по количеству байт: 18 из 18

01 00 12 00 AC 00 17 19 01 19 00 1E 68 00 91 0E F8 47   // прием: 18 байт; 19.46.19.347
// таймаут: 82 мсек


00 17 19 01 19 00 1E 68 00 91 0E   // прием: 11 байт; 19.46.19.347
// таймаут: 82 мсек


17    19.01.19    1655 0x9B28      0 - лето    период: 30  к.сумма: да 
Данные блока



00 06 03 9B 30 10 EC 7C   // передача: 8 байт; 19.46.19.468


00 00 12 00 AC 03 13 00 00 06 03 9B 30 10 EC 7C 81 E6   // передача: 18 байт; 19.46.19.468
// приём по количеству байт: 26 из 26

01 00 1A 00 AC 00 00 96 00 00 00 00 00 4E 00 98 00 00 00 00 00 4F 43 80 B0 40   // прием: 26 байт; 19.46.19.568
// таймаут: 100 мсек


00 00 96 00 00 00 00 00 4E 00 98 00 00 00 00 00 4F 43 80   // прием: 19 байт; 19.46.19.568
// таймаут: 100 мсек

150         0           0           78          
152         0           0           79          
Заголовок блока



00 06 03 9B 10 08 F5 B6   // передача: 8 байт; 19.46.19.686


00 00 12 00 AC 03 0B 00 00 06 03 9B 10 08 F5 B6 01 99   // передача: 18 байт; 19.46.19.686
// приём по количеству байт: 18 из 18

01 00 12 00 AC 00 16 19 01 19 00 1E 67 00 55 32 F8 47   // прием: 18 байт; 19.46.19.766
// таймаут: 80 мсек


00 16 19 01 19 00 1E 67 00 55 32   // прием: 11 байт; 19.46.19.766
// таймаут: 80 мсек


16    19.01.19    1654 0x9B10      0 - лето    период: 30  к.сумма: да 
Данные блока



00 06 03 9B 18 10 F2 7C   // передача: 8 байт; 19.46.19.889


00 00 12 00 AC 03 13 00 00 06 03 9B 18 10 F2 7C 81 E6   // передача: 18 байт; 19.46.19.889
// приём по количеству байт: 26 из 26

01 00 1A 00 AC 00 00 91 00 00 00 00 00 4F 00 09 00 00 00 00 00 05 08 2C B0 40   // прием: 26 байт; 19.46.20.15
// таймаут: 126 мсек


00 00 91 00 00 00 00 00 4F 00 09 00 00 00 00 00 05 08 2C   // прием: 19 байт; 19.46.20.16
// таймаут: 127 мсек

145         0           0           79          
9           0           0           5           
Заголовок блока



00 06 03 9A F8 08 EA 76   // передача: 8 байт; 19.46.20.123


00 00 12 00 AC 03 0B 00 00 06 03 9A F8 08 EA 76 01 99   // передача: 18 байт; 19.46.20.123
// приём по количеству байт: 18 из 18

01 00 12 00 AC 00 15 19 01 19 00 1E 66 00 14 B7 F8 47   // прием: 18 байт; 19.46.20.203
// таймаут: 80 мсек


00 15 19 01 19 00 1E 66 00 14 B7   // прием: 11 байт; 19.46.20.204
// таймаут: 81 мсек


15    19.01.19    1653 0x9AF8      0 - лето    период: 30  к.сумма: да 
Данные блока



00 06 03 9B 00 10 F8 7C   // передача: 8 байт; 19.46.20.310


00 00 12 00 AC 03 13 00 00 06 03 9B 00 10 F8 7C 81 E6   // передача: 18 байт; 19.46.20.310
// приём по количеству байт: 26 из 26

01 00 1A 00 AC 00 00 2F 00 00 00 00 00 1A 00 95 00 00 00 00 00 4F 28 F1 B0 40   // прием: 26 байт; 19.46.20.408
// таймаут: 98 мсек


00 00 2F 00 00 00 00 00 1A 00 95 00 00 00 00 00 4F 28 F1   // прием: 19 байт; 19.46.20.409
// таймаут: 99 мсек

47          0           0           26          
149         0           0           79          
Заголовок блока



00 06 03 9A E0 08 E0 76   // передача: 8 байт; 19.46.20.513


00 00 12 00 AC 03 0B 00 00 06 03 9A E0 08 E0 76 01 99   // передача: 18 байт; 19.46.20.513
// приём по количеству байт: 18 из 18

01 00 12 00 AC 00 14 19 01 19 00 1E 65 FF 95 CB F8 47   // прием: 18 байт; 19.46.20.595
// таймаут: 82 мсек


00 14 19 01 19 00 1E 65 FF 95 CB   // прием: 11 байт; 19.46.20.596
// таймаут: 83 мсек


14    19.01.19    1652 0x9AE0      0 - лето    период: 30  к.сумма: да 
Данные блока



00 06 03 9A E8 10 E7 BC   // передача: 8 байт; 19.46.20.700


00 00 12 00 AC 03 13 00 00 06 03 9A E8 10 E7 BC 81 E6   // передача: 18 байт; 19.46.20.700
// приём по количеству байт: 26 из 26

01 00 1A 00 AC 00 00 8F 00 00 00 00 00 4E 00 87 00 00 00 00 00 48 35 89 B0 40   // прием: 26 байт; 19.46.20.801
// таймаут: 101 мсек


00 00 8F 00 00 00 00 00 4E 00 87 00 00 00 00 00 48 35 89   // прием: 19 байт; 19.46.20.801
// таймаут: 101 мсек

143         0           0           78          
135         0           0           72          
Заголовок блока



00 06 03 9A C8 08 FE 76   // передача: 8 байт; 19.46.20.903


00 00 12 00 AC 03 0B 00 00 06 03 9A C8 08 FE 76 01 99   // передача: 18 байт; 19.46.20.903
// приём по количеству байт: 18 из 18

01 00 12 00 AC 00 13 19 01 19 00 1E 64 00 95 FD F8 47   // прием: 18 байт; 19.46.20.998
// таймаут: 95 мсек


00 13 19 01 19 00 1E 64 00 95 FD   // прием: 11 байт; 19.46.20.998
// таймаут: 95 мсек


13    19.01.19    1651 0x9AC8      0 - лето    период: 30  к.сумма: да 
Данные блока



00 06 03 9A D0 10 F4 7C   // передача: 8 байт; 19.46.21.114


00 00 12 00 AC 03 13 00 00 06 03 9A D0 10 F4 7C 81 E6   // передача: 18 байт; 19.46.21.114
// приём по количеству байт: 26 из 26

01 00 1A 00 AC 00 00 00 00 00 00 00 00 00 00 2C 00 00 00 00 00 17 DD BC B0 40   // прием: 26 байт; 19.46.21.214
// таймаут: 100 мсек


00 00 00 00 00 00 00 00 00 00 2C 00 00 00 00 00 17 DD BC   // прием: 19 байт; 19.46.21.215
// таймаут: 101 мсек

0           0           0           0           
44          0           0           23          
Заголовок блока



00 06 03 9A B0 08 DC 76   // передача: 8 байт; 19.46.21.324


00 00 12 00 AC 03 0B 00 00 06 03 9A B0 08 DC 76 01 99   // передача: 18 байт; 19.46.21.324
// приём по количеству байт: 18 из 18

01 00 12 00 AC 00 12 19 01 19 00 1E 63 00 56 01 F8 47   // прием: 18 байт; 19.46.21.405
// таймаут: 81 мсек


00 12 19 01 19 00 1E 63 00 56 01   // прием: 11 байт; 19.46.21.405
// таймаут: 81 мсек


12    19.01.19    1650 0x9AB0      0 - лето    период: 30  к.сумма: да 
Данные блока



00 06 03 9A B8 10 DB BC   // передача: 8 байт; 19.46.21.513


00 00 12 00 AC 03 13 00 00 06 03 9A B8 10 DB BC 81 E6   // передача: 18 байт; 19.46.21.514
// приём по количеству байт: 26 из 26

01 00 1A 00 AC 00 00 2F 00 00 00 00 00 1A 00 00 00 00 00 00 00 00 AC 0C B0 40   // прием: 26 байт; 19.46.21.614
// таймаут: 100 мсек


00 00 2F 00 00 00 00 00 1A 00 00 00 00 00 00 00 00 AC 0C   // прием: 19 байт; 19.46.21.614
// таймаут: 100 мсек

47          0           0           26          
0           0           0           0           
Заголовок блока



00 06 03 9A 98 08 C2 76   // передача: 8 байт; 19.46.21.714


00 00 12 00 AC 03 0B 00 00 06 03 9A 98 08 C2 76 01 99   // передача: 18 байт; 19.46.21.714
// приём по количеству байт: 18 из 18

01 00 12 00 AC 00 10 19 01 19 00 1E 61 00 D6 B8 F8 47   // прием: 18 байт; 19.46.21.798
// таймаут: 84 мсек


00 10 19 01 19 00 1E 61 00 D6 B8   // прием: 11 байт; 19.46.21.798
// таймаут: 84 мсек


10    19.01.19    1649 0x9A98      0 - лето    период: 30  к.сумма: да 
Данные блока



00 06 03 9A A0 10 D1 BC   // передача: 8 байт; 19.46.21.901


00 00 12 00 AC 03 13 00 00 06 03 9A A0 10 D1 BC 81 E6   // передача: 18 байт; 19.46.21.901
// приём по количеству байт: 26 из 26

01 00 1A 00 AC 00 00 93 00 00 00 00 00 51 00 14 00 00 00 00 00 0B 47 48 B0 40   // прием: 26 байт; 19.46.22.28
// таймаут: 127 мсек


00 00 93 00 00 00 00 00 51 00 14 00 00 00 00 00 0B 47 48   // прием: 19 байт; 19.46.22.28
// таймаут: 127 мсек

147         0           0           81          
20          0           0           11          
Заголовок блока



00 06 03 9A 80 08 C8 76   // передача: 8 байт; 19.46.22.150


00 00 12 00 AC 03 0B 00 00 06 03 9A 80 08 C8 76 01 99   // передача: 18 байт; 19.46.22.151
// приём по количеству байт: 18 из 18

01 00 12 00 AC 00 09 19 01 19 00 1E 5A 00 04 EE F8 47   // прием: 18 байт; 19.46.22.235
// таймаут: 84 мсек


00 09 19 01 19 00 1E 5A 00 04 EE   // прием: 11 байт; 19.46.22.235
// таймаут: 84 мсек


09    19.01.19    1648 0x9A80      0 - лето    период: 30  к.сумма: да 
Данные блока



00 06 03 9A 88 10 CF BC   // передача: 8 байт; 19.46.22.338


00 00 12 00 AC 03 13 00 00 06 03 9A 88 10 CF BC 81 E6   // передача: 18 байт; 19.46.22.338
// приём по количеству байт: 26 из 26

01 00 1A 00 AC 00 00 00 00 00 00 00 00 00 00 78 00 00 00 00 00 41 48 47 B0 40   // прием: 26 байт; 19.46.22.436
// таймаут: 98 мсек


00 00 00 00 00 00 00 00 00 00 78 00 00 00 00 00 41 48 47   // прием: 19 байт; 19.46.22.437
// таймаут: 99 мсек

0           0           0           0           
120         0           0           65          
Заголовок блока



00 06 03 9A 68 08 86 76   // передача: 8 байт; 19.46.22.541


00 00 12 00 AC 03 0B 00 00 06 03 9A 68 08 86 76 01 99   // передача: 18 байт; 19.46.22.541
// приём по количеству байт: 18 из 18

01 00 12 00 AC 00 22 18 01 19 00 1E 72 00 49 85 F8 47   // прием: 18 байт; 19.46.22.622
// таймаут: 81 мсек


00 22 18 01 19 00 1E 72 00 49 85   // прием: 11 байт; 19.46.22.623
// таймаут: 82 мсек


22    18.01.19    1647 0x9A68      0 - лето    период: 30  к.сумма: да 
Данные блока



00 06 03 9A 70 10 8C 7C   // передача: 8 байт; 19.46.22.728


00 00 12 00 AC 03 13 00 00 06 03 9A 70 10 8C 7C 81 E6   // передача: 18 байт; 19.46.22.728
// приём по количеству байт: 26 из 26

01 00 1A 00 AC 00 00 84 00 00 00 00 00 4B 00 33 00 00 00 00 00 1C B4 2A B0 40   // прием: 26 байт; 19.46.22.827
// таймаут: 99 мсек


00 00 84 00 00 00 00 00 4B 00 33 00 00 00 00 00 1C B4 2A   // прием: 19 байт; 19.46.22.828
// таймаут: 100 мсек

132         0           0           75          
51          0           0           28          
Заголовок блока



00 06 03 9A 50 08 95 B6   // передача: 8 байт; 19.46.22.931


00 00 12 00 AC 03 0B 00 00 06 03 9A 50 08 95 B6 01 99   // передача: 18 байт; 19.46.22.931
// приём по количеству байт: 18 из 18

01 00 12 00 AC 00 21 18 01 19 00 1E 71 00 09 60 F8 47   // прием: 18 байт; 19.46.23.12
// таймаут: 81 мсек


00 21 18 01 19 00 1E 71 00 09 60   // прием: 11 байт; 19.46.23.12
// таймаут: 81 мсек


21    18.01.19    1646 0x9A50      0 - лето    период: 30  к.сумма: да 
Данные блока



00 06 03 9A 58 10 92 7C   // передача: 8 байт; 19.46.23.118


00 00 12 00 AC 03 13 00 00 06 03 9A 58 10 92 7C 81 E6   // передача: 18 байт; 19.46.23.118
// приём по количеству байт: 26 из 26

01 00 1A 00 AC 00 00 B5 00 00 00 00 00 53 00 29 00 00 00 00 00 19 94 FC B0 40   // прием: 26 байт; 19.46.23.217
// таймаут: 99 мсек


00 00 B5 00 00 00 00 00 53 00 29 00 00 00 00 00 19 94 FC   // прием: 19 байт; 19.46.23.217
// таймаут: 99 мсек

181         0           0           83          
41          0           0           25          
Заголовок блока



00 06 03 9A 38 08 BA 76   // передача: 8 байт; 19.46.23.321


00 00 12 00 AC 03 0B 00 00 06 03 9A 38 08 BA 76 01 99   // передача: 18 байт; 19.46.23.321
// приём по количеству байт: 18 из 18

01 00 12 00 AC 00 20 18 01 19 00 1E 70 FF 89 7C F8 47   // прием: 18 байт; 19.46.23.401
// таймаут: 80 мсек


00 20 18 01 19 00 1E 70 FF 89 7C   // прием: 11 байт; 19.46.23.401
// таймаут: 80 мсек


20    18.01.19    1645 0x9A38      0 - лето    период: 30  к.сумма: да 
Данные блока



00 06 03 9A 40 10 98 7C   // передача: 8 байт; 19.46.23.508


00 00 12 00 AC 03 13 00 00 06 03 9A 40 10 98 7C 81 E6   // передача: 18 байт; 19.46.23.508
// приём по количеству байт: 26 из 26

01 00 1A 00 AC 00 00 8D 00 00 00 00 00 45 00 A4 00 00 00 00 00 4E 56 78 B0 40   // прием: 26 байт; 19.46.23.609
// таймаут: 101 мсек


00 00 8D 00 00 00 00 00 45 00 A4 00 00 00 00 00 4E 56 78   // прием: 19 байт; 19.46.23.609
// таймаут: 101 мсек

141         0           0           69          
164         0           0           78          
Заголовок блока



00 06 03 9A 20 08 B0 76   // передача: 8 байт; 19.46.23.711


00 00 12 00 AC 03 0B 00 00 06 03 9A 20 08 B0 76 01 99   // передача: 18 байт; 19.46.23.711
// приём по количеству байт: 18 из 18

01 00 12 00 AC 00 19 18 01 19 00 1E 69 00 01 D2 F8 47   // прием: 18 байт; 19.46.23.792
// таймаут: 81 мсек


00 19 18 01 19 00 1E 69 00 01 D2   // прием: 11 байт; 19.46.23.792
// таймаут: 81 мсек


19    18.01.19    1644 0x9A20      0 - лето    период: 30  к.сумма: да 
Данные блока



00 06 03 9A 28 10 B7 BC   // передача: 8 байт; 19.46.23.898


00 00 12 00 AC 03 13 00 00 06 03 9A 28 10 B7 BC 81 E6   // передача: 18 байт; 19.46.23.898
// приём по количеству байт: 26 из 26

01 00 1A 00 AC 00 00 61 00 00 00 00 00 31 00 90 00 00 00 00 00 49 D9 36 B0 40   // прием: 26 байт; 19.46.24.25
// таймаут: 127 мсек


00 00 61 00 00 00 00 00 31 00 90 00 00 00 00 00 49 D9 36   // прием: 19 байт; 19.46.24.26
// таймаут: 128 мсек

97          0           0           49          
144         0           0           73          
Заголовок блока



00 06 03 9A 08 08 AE 76   // передача: 8 байт; 19.46.24.132


00 00 12 00 AC 03 0B 00 00 06 03 9A 08 08 AE 76 01 99   // передача: 18 байт; 19.46.24.132
// приём по количеству байт: 18 из 18

01 00 12 00 AC 00 08 18 01 19 00 1E 58 00 D4 82 F8 47   // прием: 18 байт; 19.46.24.213
// таймаут: 81 мсек


00 08 18 01 19 00 1E 58 00 D4 82   // прием: 11 байт; 19.46.24.214
// таймаут: 82 мсек


08    18.01.19    1643 0x9A08      0 - лето    период: 30  к.сумма: да 
Данные блока



00 06 03 9A 10 10 A4 7C   // передача: 8 байт; 19.46.24.319


00 00 12 00 AC 03 13 00 00 06 03 9A 10 10 A4 7C 81 E6   // передача: 18 байт; 19.46.24.319
// приём по количеству байт: 26 из 26

01 00 1A 00 AC 00 00 24 00 00 00 00 00 19 00 00 00 00 00 00 00 00 F3 FB B0 40   // прием: 26 байт; 19.46.24.416
// таймаут: 97 мсек


00 00 24 00 00 00 00 00 19 00 00 00 00 00 00 00 00 F3 FB   // прием: 19 байт; 19.46.24.417
// таймаут: 98 мсек

36          0           0           25          
0           0           0           0           
Заголовок блока



00 06 03 99 F0 08 1D B6   // передача: 8 байт; 19.46.24.522


00 00 12 00 AC 03 0B 00 00 06 03 99 F0 08 1D B6 01 99   // передача: 18 байт; 19.46.24.522
// приём по количеству байт: 18 из 18

01 00 12 00 AC 00 07 18 01 19 00 1E 57 00 91 32 F8 47   // прием: 18 байт; 19.46.24.607
// таймаут: 85 мсек


00 07 18 01 19 00 1E 57 00 91 32   // прием: 11 байт; 19.46.24.607
// таймаут: 85 мсек


07    18.01.19    1642 0x99F0      0 - лето    период: 30  к.сумма: да 
Данные блока



00 06 03 99 F8 10 1A 7C   // передача: 8 байт; 19.46.24.709


00 00 12 00 AC 03 13 00 00 06 03 99 F8 10 1A 7C 81 E6   // передача: 18 байт; 19.46.24.709
// приём по количеству байт: 26 из 26

01 00 1A 00 AC 00 00 00 00 00 00 00 00 00 00 65 00 00 00 00 00 39 85 64 B0 40   // прием: 26 байт; 19.46.24.808
// таймаут: 99 мсек


00 00 00 00 00 00 00 00 00 00 65 00 00 00 00 00 39 85 64   // прием: 19 байт; 19.46.24.808
// таймаут: 99 мсек

0           0           0           0           
101         0           0           57          
Заголовок блока



00 06 03 99 D8 08 03 B6   // передача: 8 байт; 19.46.24.917


00 00 12 00 AC 03 0B 00 00 06 03 99 D8 08 03 B6 01 99   // передача: 18 байт; 19.46.24.917
// приём по количеству байт: 18 из 18

01 00 12 00 AC 00 22 17 01 19 00 1E 71 00 B6 75 F8 47   // прием: 18 байт; 19.46.25.03
// таймаут: 86 мсек


00 22 17 01 19 00 1E 71 00 B6 75   // прием: 11 байт; 19.46.25.04
// таймаут: 87 мсек


22    17.01.19    1641 0x99D8      0 - лето    период: 30  к.сумма: да 
Данные блока



00 06 03 99 E0 10 10 7C   // передача: 8 байт; 19.46.25.115


00 00 12 00 AC 03 13 00 00 06 03 99 E0 10 10 7C 81 E6   // передача: 18 байт; 19.46.25.115
// приём по количеству байт: 26 из 26

01 00 1A 00 AC 00 00 30 00 00 00 00 00 1F 00 00 00 00 00 00 00 00 CC 54 B0 40   // прием: 26 байт; 19.46.25.214
// таймаут: 99 мсек


00 00 30 00 00 00 00 00 1F 00 00 00 00 00 00 00 00 CC 54   // прием: 19 байт; 19.46.25.214
// таймаут: 99 мсек

48          0           0           31          
0           0           0           0           
Заголовок блока



00 06 03 99 C0 08 09 B6   // передача: 8 байт; 19.46.25.318


00 00 12 00 AC 03 0B 00 00 06 03 99 C0 08 09 B6 01 99   // передача: 18 байт; 19.46.25.318
// приём по количеству байт: 18 из 18

01 00 12 00 AC 00 21 17 01 19 00 1E 70 00 F7 F0 F8 47   // прием: 18 байт; 19.46.25.400
// таймаут: 82 мсек


00 21 17 01 19 00 1E 70 00 F7 F0   // прием: 11 байт; 19.46.25.400
// таймаут: 82 мсек


21    17.01.19    1640 0x99C0      0 - лето    период: 30  к.сумма: да 
Данные блока



00 06 03 99 C8 10 0E 7C   // передача: 8 байт; 19.46.25.505


00 00 12 00 AC 03 13 00 00 06 03 99 C8 10 0E 7C 81 E6   // передача: 18 байт; 19.46.25.505
// приём по количеству байт: 26 из 26

01 00 1A 00 AC 00 00 8B 00 00 00 00 00 4B 00 50 00 00 00 00 00 34 A8 36 B0 40   // прием: 26 байт; 19.46.25.605
// таймаут: 100 мсек


00 00 8B 00 00 00 00 00 4B 00 50 00 00 00 00 00 34 A8 36   // прием: 19 байт; 19.46.25.605
// таймаут: 100 мсек

139         0           0           75          
80          0           0           52          
Заголовок блока



00 06 03 99 A8 08 26 76   // передача: 8 байт; 19.46.25.708


00 00 12 00 AC 03 0B 00 00 06 03 99 A8 08 26 76 01 99   // передача: 18 байт; 19.46.25.708
// приём по количеству байт: 18 из 18

01 00 12 00 AC 00 20 17 01 19 00 1E 6F 00 3E 0C F8 47   // прием: 18 байт; 19.46.25.789
// таймаут: 81 мсек


00 20 17 01 19 00 1E 6F 00 3E 0C   // прием: 11 байт; 19.46.25.789
// таймаут: 81 мсек


20    17.01.19    1639 0x99A8      0 - лето    период: 30  к.сумма: да 
Данные блока



00 06 03 99 B0 10 2C 7C   // передача: 8 байт; 19.46.25.895


00 00 12 00 AC 03 13 00 00 06 03 99 B0 10 2C 7C 81 E6   // передача: 18 байт; 19.46.25.895
// приём по количеству байт: 26 из 26

01 00 1A 00 AC 00 00 35 00 00 00 00 00 1C 00 18 00 00 00 00 00 0C 85 A3 B0 40   // прием: 26 байт; 19.46.26.24
// таймаут: 129 мсек


00 00 35 00 00 00 00 00 1C 00 18 00 00 00 00 00 0C 85 A3   // прием: 19 байт; 19.46.26.25
// таймаут: 130 мсек

53          0           0           28          
24          0           0           12          
Заголовок блока



00 06 03 99 90 08 35 B6   // передача: 8 байт; 19.46.26.134


00 00 12 00 AC 03 0B 00 00 06 03 99 90 08 35 B6 01 99   // передача: 18 байт; 19.46.26.134
// приём по количеству байт: 18 из 18

01 00 12 00 AC 00 19 17 01 19 00 1E 68 FF BF 02 F8 47   // прием: 18 байт; 19.46.26.213
// таймаут: 79 мсек


00 19 17 01 19 00 1E 68 FF BF 02   // прием: 11 байт; 19.46.26.213
// таймаут: 79 мсек


19    17.01.19    1638 0x9990      0 - лето    период: 30  к.сумма: да 
Данные блока



00 06 03 99 98 10 32 7C   // передача: 8 байт; 19.46.26.316


00 00 12 00 AC 03 13 00 00 06 03 99 98 10 32 7C 81 E6   // передача: 18 байт; 19.46.26.317
// приём по количеству байт: 26 из 26

01 00 1A 00 AC 00 00 8F 00 00 00 00 00 4B 00 7E 00 00 00 00 00 48 63 D6 B0 40   // прием: 26 байт; 19.46.26.416
// таймаут: 99 мсек


00 00 8F 00 00 00 00 00 4B 00 7E 00 00 00 00 00 48 63 D6   // прием: 19 байт; 19.46.26.416
// таймаут: 99 мсек

143         0           0           75          
126         0           0           72          
Заголовок блока



00 06 03 99 78 08 7B B6   // передача: 8 байт; 19.46.26.529


00 00 12 00 AC 03 0B 00 00 06 03 99 78 08 7B B6 01 99   // передача: 18 байт; 19.46.26.529
// приём по количеству байт: 18 из 18

01 00 12 00 AC 00 18 17 01 19 00 1E 67 00 3B 7E F8 47   // прием: 18 байт; 19.46.26.611
// таймаут: 82 мсек


00 18 17 01 19 00 1E 67 00 3B 7E   // прием: 11 байт; 19.46.26.612
// таймаут: 83 мсек


18    17.01.19    1637 0x9978      0 - лето    период: 30  к.сумма: да 
Данные блока



00 06 03 99 80 10 38 7C   // передача: 8 байт; 19.46.26.725


00 00 12 00 AC 03 13 00 00 06 03 99 80 10 38 7C 81 E6   // передача: 18 байт; 19.46.26.726
// приём по количеству байт: 26 из 26

01 00 1A 00 AC 00 00 00 00 00 00 00 00 00 00 1D 00 00 00 00 00 0F FD 75 B0 40   // прием: 26 байт; 19.46.26.829
// таймаут: 103 мсек


00 00 00 00 00 00 00 00 00 00 1D 00 00 00 00 00 0F FD 75   // прием: 19 байт; 19.46.26.829
// таймаут: 103 мсек

0           0           0           0           
29          0           0           15          
Заголовок блока



00 06 03 99 60 08 71 B6   // передача: 8 байт; 19.46.26.943


00 00 12 00 AC 03 0B 00 00 06 03 99 60 08 71 B6 01 99   // передача: 18 байт; 19.46.26.944
// приём по количеству байт: 18 из 18

01 00 12 00 AC 00 08 17 01 19 00 1E 57 00 2E 72 F8 47   // прием: 18 байт; 19.46.27.25
// таймаут: 81 мсек


00 08 17 01 19 00 1E 57 00 2E 72   // прием: 11 байт; 19.46.27.25
// таймаут: 81 мсек


08    17.01.19    1636 0x9960      0 - лето    период: 30  к.сумма: да 
Данные блока



00 06 03 99 68 10 76 7C   // передача: 8 байт; 19.46.27.127


00 00 12 00 AC 03 13 00 00 06 03 99 68 10 76 7C 81 E6   // передача: 18 байт; 19.46.27.127
// приём по количеству байт: 26 из 26

01 00 1A 00 AC 00 00 02 00 00 00 00 00 05 00 00 00 00 00 00 00 00 CD 21 B0 40   // прием: 26 байт; 19.46.27.226
// таймаут: 99 мсек


00 00 02 00 00 00 00 00 05 00 00 00 00 00 00 00 00 CD 21   // прием: 19 байт; 19.46.27.227
// таймаут: 100 мсек

2           0           0           5           
0           0           0           0           
Заголовок блока



00 06 03 99 48 08 6F B6   // передача: 8 байт; 19.46.27.332


00 00 12 00 AC 03 0B 00 00 06 03 99 48 08 6F B6 01 99   // передача: 18 байт; 19.46.27.332
// приём по количеству байт: 18 из 18

01 00 12 00 AC 00 07 17 01 19 00 1E 56 0B 2E 65 F8 47   // прием: 18 байт; 19.46.27.412
// таймаут: 80 мсек


00 07 17 01 19 00 1E 56 0B 2E 65   // прием: 11 байт; 19.46.27.413
// таймаут: 81 мсек


07    17.01.19    1635 0x9948      0 - лето    период: 30  к.сумма: да 
Данные блока



00 06 03 99 50 10 65 BC   // передача: 8 байт; 19.46.27.517


00 00 12 00 AC 03 13 00 00 06 03 99 50 10 65 BC 81 E6   // передача: 18 байт; 19.46.27.517
// приём по количеству байт: 26 из 26

01 00 1A 00 AC 00 00 00 00 00 00 00 00 00 00 40 00 00 00 00 00 27 71 AE B0 40   // прием: 26 байт; 19.46.27.617
// таймаут: 100 мсек


00 00 00 00 00 00 00 00 00 00 40 00 00 00 00 00 27 71 AE   // прием: 19 байт; 19.46.27.617
// таймаут: 100 мсек

0           0           0           0           
64          0           0           39          
Заголовок блока



00 06 03 99 30 08 4D B6   // передача: 8 байт; 19.46.27.720


00 00 12 00 AC 03 0B 00 00 06 03 99 30 08 4D B6 01 99   // передача: 18 байт; 19.46.27.720
// приём по количеству байт: 18 из 18

01 00 12 00 AC 00 22 16 01 19 00 1E 70 0B E6 E2 F8 47   // прием: 18 байт; 19.46.27.801
// таймаут: 81 мсек


00 22 16 01 19 00 1E 70 0B E6 E2   // прием: 11 байт; 19.46.27.802
// таймаут: 82 мсек


22    16.01.19    1634 0x9930      0 - лето    период: 30  к.сумма: да 
Данные блока



00 06 03 99 38 10 4A 7C   // передача: 8 байт; 19.46.27.932


00 00 12 00 AC 03 13 00 00 06 03 99 38 10 4A 7C 81 E6   // передача: 18 байт; 19.46.27.934
// приём по количеству байт: 26 из 26

01 00 1A 00 AC 00 00 0E 00 00 00 00 00 07 00 3D 00 00 00 00 00 21 F4 9F B0 40   // прием: 26 байт; 19.46.28.33
// таймаут: 99 мсек


00 00 0E 00 00 00 00 00 07 00 3D 00 00 00 00 00 21 F4 9F   // прием: 19 байт; 19.46.28.33
// таймаут: 99 мсек

14          0           0           7           
61          0           0           33          
Заголовок блока



00 06 03 99 18 08 53 B6   // передача: 8 байт; 19.46.28.141


00 00 12 00 AC 03 0B 00 00 06 03 99 18 08 53 B6 01 99   // передача: 18 байт; 19.46.28.141
// приём по количеству байт: 18 из 18

01 00 12 00 AC 00 21 16 01 19 00 1E 6F 0A 6F 07 F8 47   // прием: 18 байт; 19.46.28.223
// таймаут: 82 мсек


00 21 16 01 19 00 1E 6F 0A 6F 07   // прием: 11 байт; 19.46.28.223
// таймаут: 82 мсек


21    16.01.19    1633 0x9918      0 - лето    период: 30  к.сумма: да 
Данные блока



00 06 03 99 20 10 40 7C   // передача: 8 байт; 19.46.28.328


00 00 12 00 AC 03 13 00 00 06 03 99 20 10 40 7C 81 E6   // передача: 18 байт; 19.46.28.328
// приём по количеству байт: 26 из 26

01 00 1A 00 AC 00 00 AC 00 00 00 00 00 53 00 39 00 00 00 00 00 1F DC 35 B0 40   // прием: 26 байт; 19.46.28.432
// таймаут: 104 мсек


00 00 AC 00 00 00 00 00 53 00 39 00 00 00 00 00 1F DC 35   // прием: 19 байт; 19.46.28.432
// таймаут: 104 мсек

172         0           0           83          
57          0           0           31          
Заголовок блока



00 06 03 99 00 08 59 B6   // передача: 8 байт; 19.46.28.531


00 00 12 00 AC 03 0B 00 00 06 03 99 00 08 59 B6 01 99   // передача: 18 байт; 19.46.28.532
// приём по количеству байт: 18 из 18

01 00 12 00 AC 00 20 16 01 19 00 1E 6E 0C 2F 59 F8 47   // прием: 18 байт; 19.46.28.613
// таймаут: 81 мсек


00 20 16 01 19 00 1E 6E 0C 2F 59   // прием: 11 байт; 19.46.28.613
// таймаут: 81 мсек


20    16.01.19    1632 0x9900      0 - лето    период: 30  к.сумма: да 
Данные блока



00 06 03 99 08 10 5E 7C   // передача: 8 байт; 19.46.28.718


00 00 12 00 AC 03 13 00 00 06 03 99 08 10 5E 7C 81 E6   // передача: 18 байт; 19.46.28.718
// приём по количеству байт: 26 из 26

01 00 1A 00 AC 00 00 A6 00 00 00 00 00 4F 00 AF 00 00 00 00 00 51 B8 CF B0 40   // прием: 26 байт; 19.46.28.818
// таймаут: 100 мсек


00 00 A6 00 00 00 00 00 4F 00 AF 00 00 00 00 00 51 B8 CF   // прием: 19 байт; 19.46.28.818
// таймаут: 100 мсек

166         0           0           79          
175         0           0           81          
Заголовок блока



00 06 03 98 E8 08 46 76   // передача: 8 байт; 19.46.28.921


00 00 12 00 AC 03 0B 00 00 06 03 98 E8 08 46 76 01 99   // передача: 18 байт; 19.46.28.921
// приём по количеству байт: 18 из 18

01 00 12 00 AC 00 19 16 01 19 00 1E 67 FF AA 32 F8 47   // прием: 18 байт; 19.46.29.06
// таймаут: 85 мсек


00 19 16 01 19 00 1E 67 FF AA 32   // прием: 11 байт; 19.46.29.06
// таймаут: 85 мсек


19    16.01.19    1631 0x98E8      0 - лето    период: 30  к.сумма: да 
Данные блока



00 06 03 98 F0 10 4C 7C   // передача: 8 байт; 19.46.29.108


00 00 12 00 AC 03 13 00 00 06 03 98 F0 10 4C 7C 81 E6   // передача: 18 байт; 19.46.29.108
// приём по количеству байт: 26 из 26

01 00 1A 00 AC 00 00 97 00 00 00 00 00 48 00 98 00 00 00 00 00 43 A9 25 B0 40   // прием: 26 байт; 19.46.29.207
// таймаут: 99 мсек


00 00 97 00 00 00 00 00 48 00 98 00 00 00 00 00 43 A9 25   // прием: 19 байт; 19.46.29.207
// таймаут: 99 мсек

151         0           0           72          
152         0           0           67          
Заголовок блока



00 06 03 98 D0 08 55 B6   // передача: 8 байт; 19.46.29.311


00 00 12 00 AC 03 0B 00 00 06 03 98 D0 08 55 B6 01 99   // передача: 18 байт; 19.46.29.311
// приём по количеству байт: 18 из 18

01 00 12 00 AC 00 18 16 01 19 00 1E 66 0C 2A 2B F8 47   // прием: 18 байт; 19.46.29.392
// таймаут: 81 мсек


00 18 16 01 19 00 1E 66 0C 2A 2B   // прием: 11 байт; 19.46.29.392
// таймаут: 81 мсек


18    16.01.19    1630 0x98D0      0 - лето    период: 30  к.сумма: да 
Данные блока



00 06 03 98 D8 10 52 7C   // передача: 8 байт; 19.46.29.498


00 00 12 00 AC 03 13 00 00 06 03 98 D8 10 52 7C 81 E6   // передача: 18 байт; 19.46.29.498
// приём по количеству байт: 26 из 26

01 00 1A 00 AC 00 00 00 00 00 00 00 00 00 00 4E 00 00 00 00 00 28 DE 6A B0 40   // прием: 26 байт; 19.46.29.596
// таймаут: 98 мсек


00 00 00 00 00 00 00 00 00 00 4E 00 00 00 00 00 28 DE 6A   // прием: 19 байт; 19.46.29.597
// таймаут: 99 мсек

0           0           0           0           
78          0           0           40          
Заголовок блока



00 06 03 98 B8 08 7A 76   // передача: 8 байт; 19.46.29.701


00 00 12 00 AC 03 0B 00 00 06 03 98 B8 08 7A 76 01 99   // передача: 18 байт; 19.46.29.702
// приём по количеству байт: 18 из 18

01 00 12 00 AC 00 08 16 01 19 00 1E 56 0C 3F 27 F8 47   // прием: 18 байт; 19.46.29.783
// таймаут: 81 мсек


00 08 16 01 19 00 1E 56 0C 3F 27   // прием: 11 байт; 19.46.29.783
// таймаут: 81 мсек


08    16.01.19    1629 0x98B8      0 - лето    период: 30  к.сумма: да 
Данные блока



00 06 03 98 C0 10 58 7C   // передача: 8 байт; 19.46.29.888


00 00 12 00 AC 03 13 00 00 06 03 98 C0 10 58 7C 81 E6   // передача: 18 байт; 19.46.29.888
// приём по количеству байт: 26 из 26

01 00 1A 00 AC 00 00 47 00 00 00 00 00 29 00 00 00 00 00 00 00 00 84 D3 B0 40   // прием: 26 байт; 19.46.30.25
// таймаут: 137 мсек


00 00 47 00 00 00 00 00 29 00 00 00 00 00 00 00 00 84 D3   // прием: 19 байт; 19.46.30.26
// таймаут: 138 мсек

71          0           0           41          
0           0           0           0           
Заголовок блока



00 06 03 98 A0 08 70 76   // передача: 8 байт; 19.46.30.122


00 00 12 00 AC 03 0B 00 00 06 03 98 A0 08 70 76 01 99   // передача: 18 байт; 19.46.30.122
// приём по количеству байт: 18 из 18

01 00 12 00 AC 00 07 16 01 19 00 1E 55 0A FF 95 F8 47   // прием: 18 байт; 19.46.30.202
// таймаут: 80 мсек


00 07 16 01 19 00 1E 55 0A FF 95   // прием: 11 байт; 19.46.30.202
// таймаут: 80 мсек


07    16.01.19    1628 0x98A0      0 - лето    период: 30  к.сумма: да 
Данные блока



00 06 03 98 A8 10 77 BC   // передача: 8 байт; 19.46.30.309


00 00 12 00 AC 03 13 00 00 06 03 98 A8 10 77 BC 81 E6   // передача: 18 байт; 19.46.30.309
// приём по количеству байт: 26 из 26

01 00 1A 00 AC 00 00 00 00 00 00 00 00 00 00 26 00 00 00 00 00 16 B6 7C B0 40   // прием: 26 байт; 19.46.30.409
// таймаут: 100 мсек


00 00 00 00 00 00 00 00 00 00 26 00 00 00 00 00 16 B6 7C   // прием: 19 байт; 19.46.30.409
// таймаут: 100 мсек

0           0           0           0           
38          0           0           22          
Заголовок блока



00 06 03 98 88 08 6E 76   // передача: 8 байт; 19.46.30.512


00 00 12 00 AC 03 0B 00 00 06 03 98 88 08 6E 76 01 99   // передача: 18 байт; 19.46.30.512
// приём по количеству байт: 18 из 18

01 00 12 00 AC 00 22 15 01 19 00 1E 6F 0C 9C 10 F8 47   // прием: 18 байт; 19.46.30.593
// таймаут: 81 мсек


00 22 15 01 19 00 1E 6F 0C 9C 10   // прием: 11 байт; 19.46.30.593
// таймаут: 81 мсек


22    15.01.19    1627 0x9888      0 - лето    период: 30  к.сумма: да 
Данные блока



00 06 03 98 90 10 64 7C   // передача: 8 байт; 19.46.30.699


00 00 12 00 AC 03 13 00 00 06 03 98 90 10 64 7C 81 E6   // передача: 18 байт; 19.46.30.699
// приём по количеству байт: 26 из 26

01 00 1A 00 AC 00 00 04 00 00 00 00 00 0C 00 73 00 00 00 00 00 40 62 44 B0 40   // прием: 26 байт; 19.46.30.798
// таймаут: 99 мсек


00 00 04 00 00 00 00 00 0C 00 73 00 00 00 00 00 40 62 44   // прием: 19 байт; 19.46.30.798
// таймаут: 99 мсек

4           0           0           12          
115         0           0           64          
Заголовок блока



00 06 03 98 70 08 2D B6   // передача: 8 байт; 19.46.30.902


00 00 12 00 AC 03 0B 00 00 06 03 98 70 08 2D B6 01 99   // передача: 18 байт; 19.46.30.902
// приём по количеству байт: 18 из 18

01 00 12 00 AC 00 21 15 01 19 00 1E 6E 0C DD 95 F8 47   // прием: 18 байт; 19.46.31.10
// таймаут: 108 мсек


00 21 15 01 19 00 1E 6E 0C DD 95   // прием: 11 байт; 19.46.31.11
// таймаут: 109 мсек


21    15.01.19    1626 0x9870      0 - лето    период: 30  к.сумма: да 
Данные блока



00 06 03 98 78 10 2A 7C   // передача: 8 байт; 19.46.31.120


00 00 12 00 AC 03 13 00 00 06 03 98 78 10 2A 7C 81 E6   // передача: 18 байт; 19.46.31.120
// приём по количеству байт: 26 из 26

01 00 1A 00 AC 00 00 BB 00 00 00 00 00 54 00 A0 00 00 00 00 00 49 24 3C B0 40   // прием: 26 байт; 19.46.31.219
// таймаут: 99 мсек


00 00 BB 00 00 00 00 00 54 00 A0 00 00 00 00 00 49 24 3C   // прием: 19 байт; 19.46.31.220
// таймаут: 100 мсек

187         0           0           84          
160         0           0           73          
Заголовок блока



00 06 03 98 58 08 33 B6   // передача: 8 байт; 19.46.31.323


00 00 12 00 AC 03 0B 00 00 06 03 98 58 08 33 B6 01 99   // передача: 18 байт; 19.46.31.323
// приём по количеству байт: 18 из 18

01 00 12 00 AC 00 20 15 01 19 00 1E 6D 0C 1C A9 F8 47   // прием: 18 байт; 19.46.31.403
// таймаут: 80 мсек


00 20 15 01 19 00 1E 6D 0C 1C A9   // прием: 11 байт; 19.46.31.404
// таймаут: 81 мсек


20    15.01.19    1625 0x9858      0 - лето    период: 30  к.сумма: да 
Данные блока



00 06 03 98 60 10 20 7C   // передача: 8 байт; 19.46.31.510


00 00 12 00 AC 03 13 00 00 06 03 98 60 10 20 7C 81 E6   // передача: 18 байт; 19.46.31.510
// приём по количеству байт: 26 из 26

01 00 1A 00 AC 00 00 A8 00 00 00 00 00 50 00 B9 00 00 00 00 00 53 4C FB B0 40   // прием: 26 байт; 19.46.31.608
// таймаут: 98 мсек


00 00 A8 00 00 00 00 00 50 00 B9 00 00 00 00 00 53 4C FB   // прием: 19 байт; 19.46.31.609
// таймаут: 99 мсек

168         0           0           80          
185         0           0           83          
Заголовок блока



00 06 03 98 40 08 39 B6   // передача: 8 байт; 19.46.31.713


00 00 12 00 AC 03 0B 00 00 06 03 98 40 08 39 B6 01 99   // передача: 18 байт; 19.46.31.713
// приём по количеству байт: 18 из 18

01 00 12 00 AC 00 19 15 01 19 00 1E 66 FF 98 A2 F8 47   // прием: 18 байт; 19.46.31.795
// таймаут: 82 мсек


00 19 15 01 19 00 1E 66 FF 98 A2   // прием: 11 байт; 19.46.31.795
// таймаут: 82 мсек


19    15.01.19    1624 0x9840      0 - лето    период: 30  к.сумма: да 
Данные блока



00 06 03 98 48 10 3E 7C   // передача: 8 байт; 19.46.31.900


00 00 12 00 AC 03 13 00 00 06 03 98 48 10 3E 7C 81 E6   // передача: 18 байт; 19.46.31.900
// приём по количеству байт: 26 из 26

01 00 1A 00 AC 00 00 8F 00 00 00 00 00 4A 00 A1 00 00 00 00 00 4C 41 48 B0 40   // прием: 26 байт; 19.46.32.34
// таймаут: 134 мсек


00 00 8F 00 00 00 00 00 4A 00 A1 00 00 00 00 00 4C 41 48   // прием: 19 байт; 19.46.32.35
// таймаут: 135 мсек

143         0           0           74          
161         0           0           76          
Заголовок блока



00 06 03 98 28 08 16 76   // передача: 8 байт; 19.46.32.134


00 00 12 00 AC 03 0B 00 00 06 03 98 28 08 16 76 01 99   // передача: 18 байт; 19.46.32.134
// приём по количеству байт: 18 из 18

01 00 12 00 AC 00 18 15 01 19 00 1E 65 0B 58 19 F8 47   // прием: 18 байт; 19.46.32.214
// таймаут: 80 мсек


00 18 15 01 19 00 1E 65 0B 58 19   // прием: 11 байт; 19.46.32.214
// таймаут: 80 мсек


18    15.01.19    1623 0x9828      0 - лето    период: 30  к.сумма: да 
Данные блока



00 06 03 98 30 10 1C 7C   // передача: 8 байт; 19.46.32.322


00 00 12 00 AC 03 13 00 00 06 03 98 30 10 1C 7C 81 E6   // передача: 18 байт; 19.46.32.322
// приём по количеству байт: 26 из 26

01 00 1A 00 AC 00 00 00 00 00 00 00 00 00 00 39 00 00 00 00 00 1D 19 7A B0 40   // прием: 26 байт; 19.46.32.421
// таймаут: 99 мсек


00 00 00 00 00 00 00 00 00 00 39 00 00 00 00 00 1D 19 7A   // прием: 19 байт; 19.46.32.421
// таймаут: 99 мсек

0           0           0           0           
57          0           0           29          
Заголовок блока



00 06 03 98 10 08 05 B6   // передача: 8 байт; 19.46.32.524


00 00 12 00 AC 03 0B 00 00 06 03 98 10 08 05 B6 01 99   // передача: 18 байт; 19.46.32.524
// приём по количеству байт: 18 из 18

01 00 12 00 AC 00 08 15 01 19 00 1E 55 0C 0C D7 F8 47   // прием: 18 байт; 19.46.32.605
// таймаут: 81 мсек


00 08 15 01 19 00 1E 55 0C 0C D7   // прием: 11 байт; 19.46.32.606
// таймаут: 82 мсек


08    15.01.19    1622 0x9810      0 - лето    период: 30  к.сумма: да 
Данные блока



00 06 03 98 18 10 02 7C   // передача: 8 байт; 19.46.32.712


00 00 12 00 AC 03 13 00 00 06 03 98 18 10 02 7C 81 E6   // передача: 18 байт; 19.46.32.712
// приём по количеству байт: 26 из 26

01 00 1A 00 AC 00 00 44 00 00 00 00 00 26 00 00 00 00 00 00 00 00 86 22 B0 40   // прием: 26 байт; 19.46.32.812
// таймаут: 100 мсек


00 00 44 00 00 00 00 00 26 00 00 00 00 00 00 00 00 86 22   // прием: 19 байт; 19.46.32.812
// таймаут: 100 мсек

68          0           0           38          
0           0           0           0           
Заголовок блока



00 06 03 97 F8 08 7B B5   // передача: 8 байт; 19.46.32.914


00 00 12 00 AC 03 0B 00 00 06 03 97 F8 08 7B B5 01 99   // передача: 18 байт; 19.46.32.914
// приём по количеству байт: 18 из 18

01 00 12 00 AC 00 22 14 01 19 00 1E 6E 0B CC 82 F8 47   // прием: 18 байт; 19.46.33.18
// таймаут: 104 мсек


00 22 14 01 19 00 1E 6E 0B CC 82   // прием: 11 байт; 19.46.33.18
// таймаут: 104 мсек


22    14.01.19    1621 0x97F8      0 - лето    период: 30  к.сумма: да 
Данные блока



00 06 03 98 00 10 08 7C   // передача: 8 байт; 19.46.33.117


00 00 12 00 AC 03 13 00 00 06 03 98 00 10 08 7C 81 E6   // передача: 18 байт; 19.46.33.117
// приём по количеству байт: 26 из 26

01 00 1A 00 AC 00 00 8E 00 00 00 00 00 4D 00 06 00 00 00 00 00 03 31 46 B0 40   // прием: 26 байт; 19.46.33.216
// таймаут: 99 мсек


00 00 8E 00 00 00 00 00 4D 00 06 00 00 00 00 00 03 31 46   // прием: 19 байт; 19.46.33.216
// таймаут: 99 мсек

142         0           0           77          
6           0           0           3           
Заголовок блока



00 06 03 97 E0 08 71 B5   // передача: 8 байт; 19.46.33.320


00 00 12 00 AC 03 0B 00 00 06 03 97 E0 08 71 B5 01 99   // передача: 18 байт; 19.46.33.320
// приём по количеству байт: 18 из 18

01 00 12 00 AC 00 21 14 01 19 00 1E 6D 05 0D A3 F8 47   // прием: 18 байт; 19.46.33.401
// таймаут: 81 мсек


00 21 14 01 19 00 1E 6D 05 0D A3   // прием: 11 байт; 19.46.33.402
// таймаут: 82 мсек


21    14.01.19    1620 0x97E0      0 - лето    период: 30  к.сумма: да 
Данные блока



00 06 03 97 E8 10 76 7F   // передача: 8 байт; 19.46.33.507


00 00 12 00 AC 03 13 00 00 06 03 97 E8 10 76 7F 81 E6   // передача: 18 байт; 19.46.33.507
// приём по количеству байт: 26 из 26

01 00 1A 00 AC 00 00 8B 00 00 00 00 00 48 00 97 00 00 00 00 00 4F 4A 29 B0 40   // прием: 26 байт; 19.46.33.606
// таймаут: 99 мсек


00 00 8B 00 00 00 00 00 48 00 97 00 00 00 00 00 4F 4A 29   // прием: 19 байт; 19.46.33.607
// таймаут: 100 мсек

139         0           0           72          
151         0           0           79          
Заголовок блока



00 06 03 97 C8 08 6F B5   // передача: 8 байт; 19.46.33.710


00 00 12 00 AC 03 0B 00 00 06 03 97 C8 08 6F B5 01 99   // передача: 18 байт; 19.46.33.710
// приём по количеству байт: 18 из 18

01 00 12 00 AC 00 19 14 01 19 00 1E 65 0B 89 15 F8 47   // прием: 18 байт; 19.46.33.791
// таймаут: 81 мсек


00 19 14 01 19 00 1E 65 0B 89 15   // прием: 11 байт; 19.46.33.791
// таймаут: 81 мсек


19    14.01.19    1619 0x97C8      0 - лето    период: 30  к.сумма: да 
Данные блока



00 06 03 97 D0 10 65 BF   // передача: 8 байт; 19.46.33.897


00 00 12 00 AC 03 13 00 00 06 03 97 D0 10 65 BF 81 E6   // передача: 18 байт; 19.46.33.897
// приём по таймауту: 1000 мс

01 00 08 00 AC 05 BE A9   // прием: 8 байт; 19.46.34.989
// таймаут: 1092 мсек


05   // прием: 1 байт; 19.46.34.989
// таймаут: 1092 мсек

Ошибка контрольной суммы, повтор: 1
Ошибка контрольной суммы, повтор: 1



00 06 03 97 D0 10 65 BF   // передача: 8 байт; 19.46.35.98


00 00 12 00 AC 03 13 00 00 06 03 97 D0 10 65 BF 81 E6   // передача: 18 байт; 19.46.35.98
// приём по количеству байт: 26 из 26

01 00 1A 00 AC 00 00 36 00 00 00 00 00 1C 00 00 00 00 00 00 00 00 5E A6 B0 40   // прием: 26 байт; 19.46.35.197
// таймаут: 99 мсек


00 00 36 00 00 00 00 00 1C 00 00 00 00 00 00 00 00 5E A6   // прием: 19 байт; 19.46.35.198
// таймаут: 100 мсек

54          0           0           28          
0           0           0           0           
Заголовок блока



00 06 03 97 B0 08 4D B5   // передача: 8 байт; 19.46.35.301


00 00 12 00 AC 03 0B 00 00 06 03 97 B0 08 4D B5 01 99   // передача: 18 байт; 19.46.35.301
// приём по количеству байт: 18 из 18

01 00 12 00 AC 00 18 14 01 19 00 1E 64 00 08 8E F8 47   // прием: 18 байт; 19.46.35.381
// таймаут: 80 мсек


00 18 14 01 19 00 1E 64 00 08 8E   // прием: 11 байт; 19.46.35.382
// таймаут: 81 мсек


18    14.01.19    1618 0x97B0      0 - лето    период: 30  к.сумма: да 
Данные блока



00 06 03 97 B8 10 4A 7F   // передача: 8 байт; 19.46.35.488


00 00 12 00 AC 03 13 00 00 06 03 97 B8 10 4A 7F 81 E6   // передача: 18 байт; 19.46.35.488
// приём по количеству байт: 26 из 26

01 00 1A 00 AC 00 00 00 00 00 00 00 00 00 00 5B 00 00 00 00 00 2E 1A A9 B0 40   // прием: 26 байт; 19.46.35.586
// таймаут: 98 мсек


00 00 00 00 00 00 00 00 00 00 5B 00 00 00 00 00 2E 1A A9   // прием: 19 байт; 19.46.35.587
// таймаут: 99 мсек

0           0           0           0           
91          0           0           46          
Заголовок блока



00 06 03 97 98 08 53 B5   // передача: 8 байт; 19.46.35.691


00 00 12 00 AC 03 0B 00 00 06 03 97 98 08 53 B5 01 99   // передача: 18 байт; 19.46.35.691
// приём по количеству байт: 18 из 18

01 00 12 00 AC 00 08 14 01 19 00 1E 54 FF 5D C2 F8 47   // прием: 18 байт; 19.46.35.772
// таймаут: 81 мсек


00 08 14 01 19 00 1E 54 FF 5D C2   // прием: 11 байт; 19.46.35.773
// таймаут: 82 мсек


08    14.01.19    1617 0x9798      0 - лето    период: 30  к.сумма: да 
Данные блока



00 06 03 97 A0 10 40 7F   // передача: 8 байт; 19.46.35.878


00 00 12 00 AC 03 13 00 00 06 03 97 A0 10 40 7F 81 E6   // передача: 18 байт; 19.46.35.878
// приём по количеству байт: 26 из 26

01 00 1A 00 AC 00 00 3F 00 00 00 00 00 26 00 00 00 00 00 00 00 00 BD 01 B0 40   // прием: 26 байт; 19.46.35.977
// таймаут: 99 мсек


00 00 3F 00 00 00 00 00 26 00 00 00 00 00 00 00 00 BD 01   // прием: 19 байт; 19.46.35.978
// таймаут: 100 мсек

63          0           0           38          
0           0           0           0           
Заголовок блока



00 06 03 97 80 08 59 B5   // передача: 8 байт; 19.46.36.82


00 00 12 00 AC 03 0B 00 00 06 03 97 80 08 59 B5 01 99   // передача: 18 байт; 19.46.36.82
// приём по количеству байт: 18 из 18

01 00 12 00 AC 00 07 14 01 19 00 1E 53 00 5F F2 F8 47   // прием: 18 байт; 19.46.36.163
// таймаут: 81 мсек


00 07 14 01 19 00 1E 53 00 5F F2   // прием: 11 байт; 19.46.36.163
// таймаут: 81 мсек


07    14.01.19    1616 0x9780      0 - лето    период: 30  к.сумма: да 
Данные блока



00 06 03 97 88 10 5E 7F   // передача: 8 байт; 19.46.36.269


00 00 12 00 AC 03 13 00 00 06 03 97 88 10 5E 7F 81 E6   // передача: 18 байт; 19.46.36.269
// приём по количеству байт: 26 из 26

01 00 1A 00 AC 00 00 00 00 00 00 00 00 00 00 38 00 00 00 00 00 1E 49 BB B0 40   // прием: 26 байт; 19.46.36.368
// таймаут: 99 мсек


00 00 00 00 00 00 00 00 00 00 38 00 00 00 00 00 1E 49 BB   // прием: 19 байт; 19.46.36.368
// таймаут: 99 мсек

0           0           0           0           
56          0           0           30          
Заголовок блока



00 06 03 97 68 08 17 B5   // передача: 8 байт; 19.46.36.472


00 00 12 00 AC 03 0B 00 00 06 03 97 68 08 17 B5 01 99   // передача: 18 байт; 19.46.36.472
// приём по количеству байт: 18 из 18

01 00 12 00 AC 00 21 13 01 19 00 1E 6C 00 BA F0 F8 47   // прием: 18 байт; 19.46.36.552
// таймаут: 80 мсек


00 21 13 01 19 00 1E 6C 00 BA F0   // прием: 11 байт; 19.46.36.552
// таймаут: 80 мсек


21    13.01.19    1615 0x9768      0 - лето    период: 30  к.сумма: да 
Данные блока



00 06 03 97 70 10 1D BF   // передача: 8 байт; 19.46.36.659


00 00 12 00 AC 03 13 00 00 06 03 97 70 10 1D BF 81 E6   // передача: 18 байт; 19.46.36.659
// приём по количеству байт: 26 из 26

01 00 1A 00 AC 00 00 8E 00 00 00 00 00 4D 00 87 00 00 00 00 00 49 21 B9 B0 40   // прием: 26 байт; 19.46.36.759
// таймаут: 100 мсек


00 00 8E 00 00 00 00 00 4D 00 87 00 00 00 00 00 49 21 B9   // прием: 19 байт; 19.46.36.759
// таймаут: 100 мсек

142         0           0           77          
135         0           0           73          
Заголовок блока



00 06 03 97 50 08 04 75   // передача: 8 байт; 19.46.36.862


00 00 12 00 AC 03 0B 00 00 06 03 97 50 08 04 75 01 99   // передача: 18 байт; 19.46.36.862
// приём по количеству байт: 18 из 18

01 00 12 00 AC 00 20 13 01 19 00 1E 6B 00 79 0C F8 47   // прием: 18 байт; 19.46.36.943
// таймаут: 81 мсек


00 20 13 01 19 00 1E 6B 00 79 0C   // прием: 11 байт; 19.46.36.944
// таймаут: 82 мсек


20    13.01.19    1614 0x9750      0 - лето    период: 30  к.сумма: да 
Данные блока



00 06 03 97 58 10 03 BF   // передача: 8 байт; 19.46.37.49


00 00 12 00 AC 03 13 00 00 06 03 97 58 10 03 BF 81 E6   // передача: 18 байт; 19.46.37.49
// приём по количеству байт: 26 из 26

01 00 1A 00 AC 00 00 4B 00 00 00 00 00 27 00 0F 00 00 00 00 00 08 3A 70 B0 40   // прием: 26 байт; 19.46.37.148
// таймаут: 99 мсек


00 00 4B 00 00 00 00 00 27 00 0F 00 00 00 00 00 08 3A 70   // прием: 19 байт; 19.46.37.149
// таймаут: 100 мсек

75          0           0           39          
15          0           0           8           
Заголовок блока



00 06 03 97 38 08 2B B5   // передача: 8 байт; 19.46.37.252


00 00 12 00 AC 03 0B 00 00 06 03 97 38 08 2B B5 01 99   // передача: 18 байт; 19.46.37.252
// приём по количеству байт: 18 из 18

01 00 12 00 AC 00 19 13 01 19 00 1E 64 00 BF 82 F8 47   // прием: 18 байт; 19.46.37.332
// таймаут: 80 мсек


00 19 13 01 19 00 1E 64 00 BF 82   // прием: 11 байт; 19.46.37.333
// таймаут: 81 мсек


19    13.01.19    1613 0x9738      0 - лето    период: 30  к.сумма: да 
Данные блока



00 06 03 97 40 10 09 BF   // передача: 8 байт; 19.46.37.439


00 00 12 00 AC 03 13 00 00 06 03 97 40 10 09 BF 81 E6   // передача: 18 байт; 19.46.37.439
// приём по количеству байт: 26 из 26

01 00 1A 00 AC 00 00 61 00 00 00 00 00 33 00 8E 00 00 00 00 00 4B BF 96 B0 40   // прием: 26 байт; 19.46.37.537
// таймаут: 98 мсек


00 00 61 00 00 00 00 00 33 00 8E 00 00 00 00 00 4B BF 96   // прием: 19 байт; 19.46.37.538
// таймаут: 99 мсек

97          0           0           51          
142         0           0           75          
Заголовок блока



00 06 03 97 20 08 21 B5   // передача: 8 байт; 19.46.37.642


00 00 12 00 AC 03 0B 00 00 06 03 97 20 08 21 B5 01 99   // передача: 18 байт; 19.46.37.642
// приём по количеству байт: 18 из 18

01 00 12 00 AC 00 18 13 01 19 00 1E 63 00 7C 7E F8 47   // прием: 18 байт; 19.46.37.723
// таймаут: 81 мсек


00 18 13 01 19 00 1E 63 00 7C 7E   // прием: 11 байт; 19.46.37.724
// таймаут: 82 мсек


18    13.01.19    1612 0x9720      0 - лето    период: 30  к.сумма: да 
Данные блока



00 06 03 97 28 10 26 7F   // передача: 8 байт; 19.46.37.829


00 00 12 00 AC 03 13 00 00 06 03 97 28 10 26 7F 81 E6   // передача: 18 байт; 19.46.37.829
// приём по количеству байт: 26 из 26

01 00 1A 00 AC 00 00 00 00 00 00 00 00 00 00 29 00 00 00 00 00 16 49 7C B0 40   // прием: 26 байт; 19.46.37.928
// таймаут: 99 мсек


00 00 00 00 00 00 00 00 00 00 29 00 00 00 00 00 16 49 7C   // прием: 19 байт; 19.46.37.929
// таймаут: 100 мсек

0           0           0           0           
41          0           0           22          
Заголовок блока



00 06 03 97 08 08 3F B5   // передача: 8 байт; 19.46.38.33


00 00 12 00 AC 03 0B 00 00 06 03 97 08 08 3F B5 01 99   // передача: 18 байт; 19.46.38.33
// приём по количеству байт: 18 из 18

01 00 12 00 AC 00 17 13 01 19 00 1E 62 00 3D AE F8 47   // прием: 18 байт; 19.46.38.113
// таймаут: 80 мсек


00 17 13 01 19 00 1E 62 00 3D AE   // прием: 11 байт; 19.46.38.113
// таймаут: 80 мсек


17    13.01.19    1611 0x9708      0 - лето    период: 30  к.сумма: да 
Данные блока



00 06 03 97 10 10 35 BF   // передача: 8 байт; 19.46.38.219


00 00 12 00 AC 03 13 00 00 06 03 97 10 10 35 BF 81 E6   // передача: 18 байт; 19.46.38.219
// приём по количеству байт: 26 из 26

01 00 1A 00 AC 00 00 AF 00 00 00 00 00 53 00 40 00 00 00 00 00 27 76 21 B0 40   // прием: 26 байт; 19.46.38.318
// таймаут: 99 мсек


00 00 AF 00 00 00 00 00 53 00 40 00 00 00 00 00 27 76 21   // прием: 19 байт; 19.46.38.318
// таймаут: 99 мсек

175         0           0           83          
64          0           0           39          
Заголовок блока



00 06 03 96 F0 08 2D B5   // передача: 8 байт; 19.46.38.422


00 00 12 00 AC 03 0B 00 00 06 03 96 F0 08 2D B5 01 99   // передача: 18 байт; 19.46.38.422
// приём по количеству байт: 18 из 18

01 00 12 00 AC 00 16 13 01 19 00 1E 61 FF BC D2 F8 47   // прием: 18 байт; 19.46.38.502
// таймаут: 80 мсек


00 16 13 01 19 00 1E 61 FF BC D2   // прием: 11 байт; 19.46.38.502
// таймаут: 80 мсек


16    13.01.19    1610 0x96F0      0 - лето    период: 30  к.сумма: да 
Данные блока



00 06 03 96 F8 10 2A 7F   // передача: 8 байт; 19.46.38.609


00 00 12 00 AC 03 13 00 00 06 03 96 F8 10 2A 7F 81 E6   // передача: 18 байт; 19.46.38.609
// приём по количеству байт: 26 из 26

01 00 1A 00 AC 00 00 A9 00 00 00 00 00 51 00 B7 00 00 00 00 00 56 AF A8 B0 40   // прием: 26 байт; 19.46.38.709
// таймаут: 100 мсек


00 00 A9 00 00 00 00 00 51 00 B7 00 00 00 00 00 56 AF A8   // прием: 19 байт; 19.46.38.709
// таймаут: 100 мсек

169         0           0           81          
183         0           0           86          
Заголовок блока



00 06 03 96 D8 08 33 B5   // передача: 8 байт; 19.46.38.812


00 00 12 00 AC 03 0B 00 00 06 03 96 D8 08 33 B5 01 99   // передача: 18 байт; 19.46.38.812
// приём по количеству байт: 18 из 18

01 00 12 00 AC 00 15 13 01 19 00 1E 60 00 BD 17 F8 47   // прием: 18 байт; 19.46.38.893
// таймаут: 81 мсек


00 15 13 01 19 00 1E 60 00 BD 17   // прием: 11 байт; 19.46.38.893
// таймаут: 81 мсек


15    13.01.19    1609 0x96D8      0 - лето    период: 30  к.сумма: да 
Данные блока



00 06 03 96 E0 10 20 7F   // передача: 8 байт; 19.46.38.999


00 00 12 00 AC 03 13 00 00 06 03 96 E0 10 20 7F 81 E6   // передача: 18 байт; 19.46.38.999
// приём по количеству байт: 26 из 26

01 00 1A 00 AC 00 00 90 00 00 00 00 00 47 00 A1 00 00 00 00 00 51 86 D9 B0 40   // прием: 26 байт; 19.46.39.98
// таймаут: 99 мсек


00 00 90 00 00 00 00 00 47 00 A1 00 00 00 00 00 51 86 D9   // прием: 19 байт; 19.46.39.99
// таймаут: 100 мсек

144         0           0           71          
161         0           0           81          
Заголовок блока



00 06 03 96 C0 08 39 B5   // передача: 8 байт; 19.46.39.202


00 00 12 00 AC 03 0B 00 00 06 03 96 C0 08 39 B5 01 99   // передача: 18 байт; 19.46.39.202
// приём по количеству байт: 18 из 18

01 00 12 00 AC 00 14 13 01 19 00 1E 5F 00 6D 2B F8 47   // прием: 18 байт; 19.46.39.282
// таймаут: 80 мсек


00 14 13 01 19 00 1E 5F 00 6D 2B   // прием: 11 байт; 19.46.39.283
// таймаут: 81 мсек


14    13.01.19    1608 0x96C0      0 - лето    период: 30  к.сумма: да 
Данные блока



00 06 03 96 C8 10 3E 7F   // передача: 8 байт; 19.46.39.389


00 00 12 00 AC 03 13 00 00 06 03 96 C8 10 3E 7F 81 E6   // передача: 18 байт; 19.46.39.389
// приём по количеству байт: 26 из 26

01 00 1A 00 AC 00 00 00 00 00 00 00 00 00 00 32 00 00 00 00 00 17 23 BD B0 40   // прием: 26 байт; 19.46.39.487
// таймаут: 98 мсек


00 00 00 00 00 00 00 00 00 00 32 00 00 00 00 00 17 23 BD   // прием: 19 байт; 19.46.39.488
// таймаут: 99 мсек

0           0           0           0           
50          0           0           23          
Заголовок блока



00 06 03 96 A8 08 16 75   // передача: 8 байт; 19.46.39.592


00 00 12 00 AC 03 0B 00 00 06 03 96 A8 08 16 75 01 99   // передача: 18 байт; 19.46.39.592
// приём по количеству байт: 18 из 18

01 00 12 00 AC 00 22 12 01 19 00 1E 6C 00 EA 25 F8 47   // прием: 18 байт; 19.46.39.681
// таймаут: 89 мсек


00 22 12 01 19 00 1E 6C 00 EA 25   // прием: 11 байт; 19.46.39.682
// таймаут: 90 мсек


22    12.01.19    1607 0x96A8      0 - лето    период: 30  к.сумма: да 
Данные блока



00 06 03 96 B0 10 1C 7F   // передача: 8 байт; 19.46.39.795


00 00 12 00 AC 03 13 00 00 06 03 96 B0 10 1C 7F 81 E6   // передача: 18 байт; 19.46.39.795
// приём по количеству байт: 26 из 26

01 00 1A 00 AC 00 00 7D 00 00 00 00 00 44 00 00 00 00 00 00 00 00 CE 52 B0 40   // прием: 26 байт; 19.46.39.900
// таймаут: 105 мсек


00 00 7D 00 00 00 00 00 44 00 00 00 00 00 00 00 00 CE 52   // прием: 19 байт; 19.46.39.901
// таймаут: 106 мсек

125         0           0           68          
0           0           0           0           
Заголовок блока



00 06 03 96 90 08 05 B5   // передача: 8 байт; 19.46.40.13


00 00 12 00 AC 03 0B 00 00 06 03 96 90 08 05 B5 01 99   // передача: 18 байт; 19.46.40.13
// приём по количеству байт: 18 из 18

01 00 12 00 AC 00 21 12 01 19 00 1E 6B 00 A8 00 F8 47   // прием: 18 байт; 19.46.40.96
// таймаут: 83 мсек


00 21 12 01 19 00 1E 6B 00 A8 00   // прием: 11 байт; 19.46.40.96
// таймаут: 83 мсек


21    12.01.19    1606 0x9690      0 - лето    период: 30  к.сумма: да 
Данные блока



00 06 03 96 98 10 02 7F   // передача: 8 байт; 19.46.40.201


00 00 12 00 AC 03 13 00 00 06 03 96 98 10 02 7F 81 E6   // передача: 18 байт; 19.46.40.201
// приём по количеству байт: 26 из 26

01 00 1A 00 AC 00 00 1B 00 00 00 00 00 11 00 90 00 00 00 00 00 4C 7A D7 B0 40   // прием: 26 байт; 19.46.40.301
// таймаут: 100 мсек


00 00 1B 00 00 00 00 00 11 00 90 00 00 00 00 00 4C 7A D7   // прием: 19 байт; 19.46.40.302
// таймаут: 101 мсек

27          0           0           17          
144         0           0           76          
Заголовок блока



00 06 03 96 78 08 4B B5   // передача: 8 байт; 19.46.40.403


00 00 12 00 AC 03 0B 00 00 06 03 96 78 08 4B B5 01 99   // передача: 18 байт; 19.46.40.403
// приём по количеству байт: 18 из 18

01 00 12 00 AC 00 19 12 01 19 00 1E 63 0B EC B5 F8 47   // прием: 18 байт; 19.46.40.490
// таймаут: 87 мсек


00 19 12 01 19 00 1E 63 0B EC B5   // прием: 11 байт; 19.46.40.490
// таймаут: 87 мсек


19    12.01.19    1605 0x9678      0 - лето    период: 30  к.сумма: да 
Данные блока



00 06 03 96 80 10 08 7F   // передача: 8 байт; 19.46.40.590


00 00 12 00 AC 03 13 00 00 06 03 96 80 10 08 7F 81 E6   // передача: 18 байт; 19.46.40.590
// приём по количеству байт: 26 из 26

01 00 1A 00 AC 00 00 4D 00 00 00 00 00 29 00 4C 00 00 00 00 00 29 42 CE B0 40   // прием: 26 байт; 19.46.40.689
// таймаут: 99 мсек


00 00 4D 00 00 00 00 00 29 00 4C 00 00 00 00 00 29 42 CE   // прием: 19 байт; 19.46.40.689
// таймаут: 99 мсек

77          0           0           41          
76          0           0           41          
Заголовок блока



00 06 03 96 60 08 41 B5   // передача: 8 байт; 19.46.40.793


00 00 12 00 AC 03 0B 00 00 06 03 96 60 08 41 B5 01 99   // передача: 18 байт; 19.46.40.793
// приём по количеству байт: 18 из 18

01 00 12 00 AC 00 18 12 01 19 00 1E 62 0B 2C E9 F8 47   // прием: 18 байт; 19.46.40.873
// таймаут: 80 мсек


00 18 12 01 19 00 1E 62 0B 2C E9   // прием: 11 байт; 19.46.40.873
// таймаут: 80 мсек


18    12.01.19    1604 0x9660      0 - лето    период: 30  к.сумма: да 
Данные блока



00 06 03 96 68 10 46 7F   // передача: 8 байт; 19.46.40.980


00 00 12 00 AC 03 13 00 00 06 03 96 68 10 46 7F 81 E6   // передача: 18 байт; 19.46.40.980
// приём по количеству байт: 26 из 26

01 00 1A 00 AC 00 00 0F 00 00 00 00 00 07 00 96 00 00 00 00 00 4E 6F 79 B0 40   // прием: 26 байт; 19.46.41.80
// таймаут: 100 мсек


00 00 0F 00 00 00 00 00 07 00 96 00 00 00 00 00 4E 6F 79   // прием: 19 байт; 19.46.41.81
// таймаут: 101 мсек

15          0           0           7           
150         0           0           78          
Заголовок блока



00 06 03 96 48 08 5F B5   // передача: 8 байт; 19.46.41.183


00 00 12 00 AC 03 0B 00 00 06 03 96 48 08 5F B5 01 99   // передача: 18 байт; 19.46.41.183
// приём по количеству байт: 18 из 18

01 00 12 00 AC 00 17 12 01 19 00 1E 61 FF 6D DE F8 47   // прием: 18 байт; 19.46.41.264
// таймаут: 81 мсек


00 17 12 01 19 00 1E 61 FF 6D DE   // прием: 11 байт; 19.46.41.265
// таймаут: 82 мсек


17    12.01.19    1603 0x9648      0 - лето    период: 30  к.сумма: да 
Данные блока



00 06 03 96 50 10 55 BF   // передача: 8 байт; 19.46.41.386


00 00 12 00 AC 03 13 00 00 06 03 96 50 10 55 BF 81 E6   // передача: 18 байт; 19.46.41.386
// приём по количеству байт: 26 из 26

01 00 1A 00 AC 00 00 84 00 00 00 00 00 4B 00 09 00 00 00 00 00 05 EF E3 B0 40   // прием: 26 байт; 19.46.41.485
// таймаут: 99 мсек


00 00 84 00 00 00 00 00 4B 00 09 00 00 00 00 00 05 EF E3   // прием: 19 байт; 19.46.41.486
// таймаут: 100 мсек

132         0           0           75          
9           0           0           5           
Заголовок блока



00 06 03 96 30 08 7D B5   // передача: 8 байт; 19.46.41.604


00 00 12 00 AC 03 0B 00 00 06 03 96 30 08 7D B5 01 99   // передача: 18 байт; 19.46.41.604
// приём по количеству байт: 18 из 18

01 00 12 00 AC 00 16 12 01 19 00 1E 60 00 ED C2 F8 47   // прием: 18 байт; 19.46.41.687
// таймаут: 83 мсек


00 16 12 01 19 00 1E 60 00 ED C2   // прием: 11 байт; 19.46.41.687
// таймаут: 83 мсек


16    12.01.19    1602 0x9630      0 - лето    период: 30  к.сумма: да 
Данные блока



00 06 03 96 38 10 7A 7F   // передача: 8 байт; 19.46.41.807


00 00 12 00 AC 03 13 00 00 06 03 96 38 10 7A 7F 81 E6   // передача: 18 байт; 19.46.41.807
// приём по количеству байт: 26 из 26

01 00 1A 00 AC 00 00 1F 00 00 00 00 00 10 00 8D 00 00 00 00 00 4E 3F 84 B0 40   // прием: 26 байт; 19.46.41.906
// таймаут: 99 мсек


00 00 1F 00 00 00 00 00 10 00 8D 00 00 00 00 00 4E 3F 84   // прием: 19 байт; 19.46.41.907
// таймаут: 100 мсек

31          0           0           16          
141         0           0           78          
Заголовок блока



00 06 03 96 18 08 63 B5   // передача: 8 байт; 19.46.42.25


00 00 12 00 AC 03 0B 00 00 06 03 96 18 08 63 B5 01 99   // передача: 18 байт; 19.46.42.25
// приём по количеству байт: 18 из 18

01 00 12 00 AC 00 15 12 01 19 00 1E 5F 00 BC 27 F8 47   // прием: 18 байт; 19.46.42.105
// таймаут: 80 мсек


00 15 12 01 19 00 1E 5F 00 BC 27   // прием: 11 байт; 19.46.42.105
// таймаут: 80 мсек


15    12.01.19    1601 0x9618      0 - лето    период: 30  к.сумма: да 
Данные блока



00 06 03 96 20 10 70 7F   // передача: 8 байт; 19.46.42.213


00 00 12 00 AC 03 13 00 00 06 03 96 20 10 70 7F 81 E6   // передача: 18 байт; 19.46.42.213
// приём по количеству байт: 26 из 26

01 00 1A 00 AC 00 00 BB 00 00 00 00 00 57 00 92 00 00 00 00 00 46 63 0B B0 40   // прием: 26 байт; 19.46.42.312
// таймаут: 99 мсек


00 00 BB 00 00 00 00 00 57 00 92 00 00 00 00 00 46 63 0B   // прием: 19 байт; 19.46.42.312
// таймаут: 99 мсек

187         0           0           87          
146         0           0           70          
Заголовок блока



00 06 03 96 00 08 69 B5   // передача: 8 байт; 19.46.42.431


00 00 12 00 AC 03 0B 00 00 06 03 96 00 08 69 B5 01 99   // передача: 18 байт; 19.46.42.431
// приём по количеству байт: 18 из 18

01 00 12 00 AC 00 14 12 01 19 00 1E 5E 00 7C 7B F8 47   // прием: 18 байт; 19.46.42.512
// таймаут: 81 мсек


00 14 12 01 19 00 1E 5E 00 7C 7B   // прием: 11 байт; 19.46.42.512
// таймаут: 81 мсек


14    12.01.19    1600 0x9600      0 - лето    период: 30  к.сумма: да 
Данные блока



00 06 03 96 08 10 6E 7F   // передача: 8 байт; 19.46.42.634


00 00 12 00 AC 03 13 00 00 06 03 96 08 10 6E 7F 81 E6   // передача: 18 байт; 19.46.42.634
// приём по количеству байт: 26 из 26

01 00 1A 00 AC 00 00 91 00 00 00 00 00 48 00 BB 00 00 00 00 00 58 7D EE B0 40   // прием: 26 байт; 19.46.42.733
// таймаут: 99 мсек


00 00 91 00 00 00 00 00 48 00 BB 00 00 00 00 00 58 7D EE   // прием: 19 байт; 19.46.42.733
// таймаут: 99 мсек

145         0           0           72          
187         0           0           88          
Заголовок блока



00 06 03 95 E8 08 D7 B5   // передача: 8 байт; 19.46.42.852


00 00 12 00 AC 03 0B 00 00 06 03 95 E8 08 D7 B5 01 99   // передача: 18 байт; 19.46.42.852
// приём по количеству байт: 18 из 18

01 00 12 00 AC 00 13 12 01 19 00 1E 5D 00 3D 6D F8 47   // прием: 18 байт; 19.46.42.933
// таймаут: 81 мсек


00 13 12 01 19 00 1E 5D 00 3D 6D   // прием: 11 байт; 19.46.42.933
// таймаут: 81 мсек


13    12.01.19    1599 0x95E8      0 - лето    период: 30  к.сумма: да 
Данные блока



00 06 03 95 F0 10 DD BF   // передача: 8 байт; 19.46.43.55


00 00 12 00 AC 03 13 00 00 06 03 95 F0 10 DD BF 81 E6   // передача: 18 байт; 19.46.43.55
// приём по количеству байт: 26 из 26

01 00 1A 00 AC 00 00 79 00 00 00 00 00 45 00 00 00 00 00 00 00 00 C7 C1 B0 40   // прием: 26 байт; 19.46.43.155
// таймаут: 100 мсек


00 00 79 00 00 00 00 00 45 00 00 00 00 00 00 00 00 C7 C1   // прием: 19 байт; 19.46.43.155
// таймаут: 100 мсек

121         0           0           69          
0           0           0           0           
Заголовок блока



00 06 03 95 D0 08 C4 75   // передача: 8 байт; 19.46.43.273


00 00 12 00 AC 03 0B 00 00 06 03 95 D0 08 C4 75 01 99   // передача: 18 байт; 19.46.43.273
// приём по количеству байт: 18 из 18

01 00 12 00 AC 00 12 12 01 19 00 1E 5C 00 FD 31 F8 47   // прием: 18 байт; 19.46.43.355
// таймаут: 82 мсек


00 12 12 01 19 00 1E 5C 00 FD 31   // прием: 11 байт; 19.46.43.355
// таймаут: 82 мсек


12    12.01.19    1598 0x95D0      0 - лето    период: 30  к.сумма: да 
Данные блока



00 06 03 95 D8 10 C3 BF   // передача: 8 байт; 19.46.43.476


00 00 12 00 AC 03 13 00 00 06 03 95 D8 10 C3 BF 81 E6   // передача: 18 байт; 19.46.43.476
// приём по количеству байт: 26 из 26

01 00 1A 00 AC 00 00 73 00 00 00 00 00 41 00 85 00 00 00 00 00 4C AA 3B B0 40   // прием: 26 байт; 19.46.43.576
// таймаут: 100 мсек


00 00 73 00 00 00 00 00 41 00 85 00 00 00 00 00 4C AA 3B   // прием: 19 байт; 19.46.43.576
// таймаут: 100 мсек

115         0           0           65          
133         0           0           76          
Заголовок блока



00 06 03 95 B8 08 EB B5   // передача: 8 байт; 19.46.43.694


00 00 12 00 AC 03 0B 00 00 06 03 95 B8 08 EB B5 01 99   // передача: 18 байт; 19.46.43.694
// приём по количеству байт: 18 из 18

01 00 12 00 AC 00 10 12 01 19 00 1E 5A 00 7F 48 F8 47   // прием: 18 байт; 19.46.43.774
// таймаут: 80 мсек


00 10 12 01 19 00 1E 5A 00 7F 48   // прием: 11 байт; 19.46.43.774
// таймаут: 80 мсек


10    12.01.19    1597 0x95B8      0 - лето    период: 30  к.сумма: да 
Данные блока



00 06 03 95 C0 10 C9 BF   // передача: 8 байт; 19.46.43.897


00 00 12 00 AC 03 13 00 00 06 03 95 C0 10 C9 BF 81 E6   // передача: 18 байт; 19.46.43.897
// приём по количеству байт: 26 из 26

01 00 1A 00 AC 00 00 32 00 00 00 00 00 1D 00 00 00 00 00 00 00 00 57 35 B0 40   // прием: 26 байт; 19.46.43.997
// таймаут: 100 мсек


00 00 32 00 00 00 00 00 1D 00 00 00 00 00 00 00 00 57 35   // прием: 19 байт; 19.46.43.997
// таймаут: 100 мсек

50          0           0           29          
0           0           0           0           
Заголовок блока



00 06 03 95 A0 08 E1 B5   // передача: 8 байт; 19.46.44.116


00 00 12 00 AC 03 0B 00 00 06 03 95 A0 08 E1 B5 01 99   // передача: 18 байт; 19.46.44.116
// приём по количеству байт: 18 из 18

01 00 12 00 AC 00 09 12 01 19 00 1E 53 FF F8 3E F8 47   // прием: 18 байт; 19.46.44.197
// таймаут: 81 мсек


00 09 12 01 19 00 1E 53 FF F8 3E   // прием: 11 байт; 19.46.44.198
// таймаут: 82 мсек


09    12.01.19    1596 0x95A0      0 - лето    период: 30  к.сумма: да 
Данные блока



00 06 03 95 A8 10 E6 7F   // передача: 8 байт; 19.46.44.318


00 00 12 00 AC 03 13 00 00 06 03 95 A8 10 E6 7F 81 E6   // передача: 18 байт; 19.46.44.318
// приём по количеству байт: 26 из 26

01 00 1A 00 AC 00 00 89 00 00 00 00 00 53 00 82 00 00 00 00 00 50 73 D1 B0 40   // прием: 26 байт; 19.46.44.416
// таймаут: 98 мсек


00 00 89 00 00 00 00 00 53 00 82 00 00 00 00 00 50 73 D1   // прием: 19 байт; 19.46.44.417
// таймаут: 99 мсек

137         0           0           83          
130         0           0           80          
Заголовок блока



00 06 03 95 88 08 FF B5   // передача: 8 байт; 19.46.44.537


00 00 12 00 AC 03 0B 00 00 06 03 95 88 08 FF B5 01 99   // передача: 18 байт; 19.46.44.537
// приём по количеству байт: 18 из 18

01 00 12 00 AC 00 08 12 01 19 00 1E 52 00 78 22 F8 47   // прием: 18 байт; 19.46.44.619
// таймаут: 82 мсек


00 08 12 01 19 00 1E 52 00 78 22   // прием: 11 байт; 19.46.44.619
// таймаут: 82 мсек


08    12.01.19    1595 0x9588      0 - лето    период: 30  к.сумма: да 
Данные блока



00 06 03 95 90 10 F5 BF   // передача: 8 байт; 19.46.44.724


00 00 12 00 AC 03 13 00 00 06 03 95 90 10 F5 BF 81 E6   // передача: 18 байт; 19.46.44.724
// приём по количеству байт: 26 из 26

01 00 1A 00 AC 00 00 8B 00 00 00 00 00 53 00 8D 00 00 00 00 00 54 0F 13 B0 40   // прием: 26 байт; 19.46.44.823
// таймаут: 99 мсек


00 00 8B 00 00 00 00 00 53 00 8D 00 00 00 00 00 54 0F 13   // прием: 19 байт; 19.46.44.824
// таймаут: 100 мсек

139         0           0           83          
141         0           0           84          
Заголовок блока



00 06 03 95 70 08 BC 75   // передача: 8 байт; 19.46.44.927


00 00 12 00 AC 03 0B 00 00 06 03 95 70 08 BC 75 01 99   // передача: 18 байт; 19.46.44.927
// приём по количеству байт: 18 из 18

01 00 12 00 AC 00 07 12 01 19 00 1E 51 00 38 92 F8 47   // прием: 18 байт; 19.46.45.08
// таймаут: 81 мсек


00 07 12 01 19 00 1E 51 00 38 92   // прием: 11 байт; 19.46.45.08
// таймаут: 81 мсек


07    12.01.19    1594 0x9570      0 - лето    период: 30  к.сумма: да 
Данные блока



00 06 03 95 78 10 BB BF   // передача: 8 байт; 19.46.45.114


00 00 12 00 AC 03 13 00 00 06 03 95 78 10 BB BF 81 E6   // передача: 18 байт; 19.46.45.114
// приём по количеству байт: 26 из 26

01 00 1A 00 AC 00 00 89 00 00 00 00 00 50 00 84 00 00 00 00 00 49 C0 EB B0 40   // прием: 26 байт; 19.46.45.213
// таймаут: 99 мсек


00 00 89 00 00 00 00 00 50 00 84 00 00 00 00 00 49 C0 EB   // прием: 19 байт; 19.46.45.213
// таймаут: 99 мсек

137         0           0           80          
132         0           0           73          
Заголовок блока



00 06 03 95 58 08 A2 75   // передача: 8 байт; 19.46.45.317


00 00 12 00 AC 03 0B 00 00 06 03 95 58 08 A2 75 01 99   // передача: 18 байт; 19.46.45.317
// приём по количеству байт: 18 из 18

01 00 12 00 AC 00 06 12 01 19 00 1E 50 00 F8 CE F8 47   // прием: 18 байт; 19.46.45.397
// таймаут: 80 мсек


00 06 12 01 19 00 1E 50 00 F8 CE   // прием: 11 байт; 19.46.45.397
// таймаут: 80 мсек


06    12.01.19    1593 0x9558      0 - лето    период: 30  к.сумма: да 
Данные блока



00 06 03 95 60 10 B1 BF   // передача: 8 байт; 19.46.45.504


00 00 12 00 AC 03 13 00 00 06 03 95 60 10 B1 BF 81 E6   // передача: 18 байт; 19.46.45.504
// приём по количеству байт: 26 из 26

01 00 1A 00 AC 00 00 00 00 00 00 00 00 00 00 89 00 00 00 00 00 50 68 84 B0 40   // прием: 26 байт; 19.46.45.604
// таймаут: 100 мсек


00 00 00 00 00 00 00 00 00 00 89 00 00 00 00 00 50 68 84   // прием: 19 байт; 19.46.45.604
// таймаут: 100 мсек

0           0           0           0           
137         0           0           80          
Заголовок блока



00 06 03 95 40 08 A8 75   // передача: 8 байт; 19.46.45.707


00 00 12 00 AC 03 0B 00 00 06 03 95 40 08 A8 75 01 99   // передача: 18 байт; 19.46.45.707
// приём по количеству байт: 18 из 18

01 00 12 00 AC 00 22 11 01 19 00 1E 6B 00 DB 15 F8 47   // прием: 18 байт; 19.46.45.788
// таймаут: 81 мсек


00 22 11 01 19 00 1E 6B 00 DB 15   // прием: 11 байт; 19.46.45.788
// таймаут: 81 мсек


22    11.01.19    1592 0x9540      0 - лето    период: 30  к.сумма: да 
Данные блока



00 06 03 95 48 10 AF BF   // передача: 8 байт; 19.46.45.894


00 00 12 00 AC 03 13 00 00 06 03 95 48 10 AF BF 81 E6   // передача: 18 байт; 19.46.45.894
// приём по количеству байт: 26 из 26

01 00 1A 00 AC 00 00 08 00 00 00 00 00 18 00 01 00 00 00 00 00 01 03 76 B0 40   // прием: 26 байт; 19.46.45.993
// таймаут: 99 мсек


00 00 08 00 00 00 00 00 18 00 01 00 00 00 00 00 01 03 76   // прием: 19 байт; 19.46.45.993
// таймаут: 99 мсек

8           0           0           24          
1           0           0           1           
Заголовок блока



00 06 03 95 28 08 87 B5   // передача: 8 байт; 19.46.46.97


00 00 12 00 AC 03 0B 00 00 06 03 95 28 08 87 B5 01 99   // передача: 18 байт; 19.46.46.97
// приём по количеству байт: 18 из 18

01 00 12 00 AC 00 21 11 01 19 00 1E 6A 00 9A 90 F8 47   // прием: 18 байт; 19.46.46.177
// таймаут: 80 мсек


00 21 11 01 19 00 1E 6A 00 9A 90   // прием: 11 байт; 19.46.46.178
// таймаут: 81 мсек


21    11.01.19    1591 0x9528      0 - лето    период: 30  к.сумма: да 
Данные блока



00 06 03 95 30 10 8D BF   // передача: 8 байт; 19.46.46.284


00 00 12 00 AC 03 13 00 00 06 03 95 30 10 8D BF 81 E6   // передача: 18 байт; 19.46.46.284
// приём по количеству байт: 26 из 26

01 00 1A 00 AC 00 00 74 00 00 00 00 00 3C 00 A3 00 00 00 00 00 51 57 A0 B0 40   // прием: 26 байт; 19.46.46.382
// таймаут: 98 мсек


00 00 74 00 00 00 00 00 3C 00 A3 00 00 00 00 00 51 57 A0   // прием: 19 байт; 19.46.46.383
// таймаут: 99 мсек

116         0           0           60          
163         0           0           81          
Заголовок блока



00 06 03 95 10 08 94 75   // передача: 8 байт; 19.46.46.487


00 00 12 00 AC 03 0B 00 00 06 03 95 10 08 94 75 01 99   // передача: 18 байт; 19.46.46.487
// приём по количеству байт: 18 из 18

01 00 12 00 AC 00 20 11 01 19 00 1E 69 00 5B AC F8 47   // прием: 18 байт; 19.46.46.568
// таймаут: 81 мсек


00 20 11 01 19 00 1E 69 00 5B AC   // прием: 11 байт; 19.46.46.569
// таймаут: 82 мсек


20    11.01.19    1590 0x9510      0 - лето    период: 30  к.сумма: да 
Данные блока



00 06 03 95 18 10 93 BF   // передача: 8 байт; 19.46.46.674


00 00 12 00 AC 03 13 00 00 06 03 95 18 10 93 BF 81 E6   // передача: 18 байт; 19.46.46.674
// приём по количеству байт: 26 из 26

01 00 1A 00 AC 00 00 BA 00 00 00 00 00 55 00 8F 00 00 00 00 00 42 77 A9 B0 40   // прием: 26 байт; 19.46.46.773
// таймаут: 99 мсек


00 00 BA 00 00 00 00 00 55 00 8F 00 00 00 00 00 42 77 A9   // прием: 19 байт; 19.46.46.774
// таймаут: 100 мсек

186         0           0           85          
143         0           0           66          
Заголовок блока



00 06 03 94 F8 08 8B B5   // передача: 8 байт; 19.46.46.881


00 00 12 00 AC 03 0B 00 00 06 03 94 F8 08 8B B5 01 99   // передача: 18 байт; 19.46.46.882
// приём по количеству байт: 18 из 18

01 00 12 00 AC 00 19 11 01 19 00 1E 62 FF DF A2 F8 47   // прием: 18 байт; 19.46.46.964
// таймаут: 82 мсек


00 19 11 01 19 00 1E 62 FF DF A2   // прием: 11 байт; 19.46.46.965
// таймаут: 83 мсек


19    11.01.19    1589 0x94F8      0 - лето    период: 30  к.сумма: да 
Данные блока



00 06 03 95 00 10 99 BF   // передача: 8 байт; 19.46.47.65


00 00 12 00 AC 03 13 00 00 06 03 95 00 10 99 BF 81 E6   // передача: 18 байт; 19.46.47.65
// приём по количеству байт: 26 из 26

01 00 1A 00 AC 00 00 BB 00 00 00 00 00 52 00 B6 00 00 00 00 00 52 38 56 B0 40   // прием: 26 байт; 19.46.47.165
// таймаут: 100 мсек


00 00 BB 00 00 00 00 00 52 00 B6 00 00 00 00 00 52 38 56   // прием: 19 байт; 19.46.47.165
// таймаут: 100 мсек

187         0           0           82          
182         0           0           82          
Заголовок блока



00 06 03 94 E0 08 81 B5   // передача: 8 байт; 19.46.47.267


00 00 12 00 AC 03 0B 00 00 06 03 94 E0 08 81 B5 01 99   // передача: 18 байт; 19.46.47.267
// приём по количеству байт: 18 из 18

01 00 12 00 AC 00 18 11 01 19 00 1E 61 00 5E DE F8 47   // прием: 18 байт; 19.46.47.347
// таймаут: 80 мсек


00 18 11 01 19 00 1E 61 00 5E DE   // прием: 11 байт; 19.46.47.347
// таймаут: 80 мсек


18    11.01.19    1588 0x94E0      0 - лето    период: 30  к.сумма: да 
Данные блока



00 06 03 94 E8 10 86 7F   // передача: 8 байт; 19.46.47.454


00 00 12 00 AC 03 13 00 00 06 03 94 E8 10 86 7F 81 E6   // передача: 18 байт; 19.46.47.456
// приём по количеству байт: 26 из 26

01 00 1A 00 AC 00 00 00 00 00 00 00 00 00 00 24 00 00 00 00 00 10 15 BE B0 40   // прием: 26 байт; 19.46.47.554
// таймаут: 98 мсек


00 00 00 00 00 00 00 00 00 00 24 00 00 00 00 00 10 15 BE   // прием: 19 байт; 19.46.47.554
// таймаут: 98 мсек

0           0           0           0           
36          0           0           16          
Заголовок блока



00 06 03 94 C8 08 9F B5   // передача: 8 байт; 19.46.47.674


00 00 12 00 AC 03 0B 00 00 06 03 94 C8 08 9F B5 01 99   // передача: 18 байт; 19.46.47.675
// приём по количеству байт: 18 из 18

01 00 12 00 AC 00 08 11 01 19 00 1E 51 00 4B D2 F8 47   // прием: 18 байт; 19.46.47.764
// таймаут: 89 мсек


00 08 11 01 19 00 1E 51 00 4B D2   // прием: 11 байт; 19.46.47.765
// таймаут: 90 мсек


08    11.01.19    1587 0x94C8      0 - лето    период: 30  к.сумма: да 
Данные блока



00 06 03 94 D0 10 95 BF   // передача: 8 байт; 19.46.47.883


00 00 12 00 AC 03 13 00 00 06 03 94 D0 10 95 BF 81 E6   // передача: 18 байт; 19.46.47.884
// приём по количеству байт: 26 из 26

01 00 1A 00 AC 00 00 80 00 00 00 00 00 3F 00 00 00 00 00 00 00 00 E5 E1 B0 40   // прием: 26 байт; 19.46.47.983
// таймаут: 99 мсек


00 00 80 00 00 00 00 00 3F 00 00 00 00 00 00 00 00 E5 E1   // прием: 19 байт; 19.46.47.983
// таймаут: 99 мсек

128         0           0           63          
0           0           0           0           
Заголовок блока



00 06 03 94 B0 08 BD B5   // передача: 8 байт; 19.46.48.93


00 00 12 00 AC 03 0B 00 00 06 03 94 B0 08 BD B5 01 99   // передача: 18 байт; 19.46.48.93
// приём по количеству байт: 18 из 18

01 00 12 00 AC 00 07 11 01 19 00 1E 50 00 0A 02 F8 47   // прием: 18 байт; 19.46.48.173
// таймаут: 80 мсек


00 07 11 01 19 00 1E 50 00 0A 02   // прием: 11 байт; 19.46.48.174
// таймаут: 81 мсек


07    11.01.19    1586 0x94B0      0 - лето    период: 30  к.сумма: да 
Данные блока



00 06 03 94 B8 10 BA 7F   // передача: 8 байт; 19.46.48.281


00 00 12 00 AC 03 13 00 00 06 03 94 B8 10 BA 7F 81 E6   // передача: 18 байт; 19.46.48.281
// приём по количеству байт: 26 из 26

01 00 1A 00 AC 00 00 00 00 00 00 00 00 00 00 77 00 00 00 00 00 3C 77 66 B0 40   // прием: 26 байт; 19.46.48.380
// таймаут: 99 мсек


00 00 00 00 00 00 00 00 00 00 77 00 00 00 00 00 3C 77 66   // прием: 19 байт; 19.46.48.381
// таймаут: 100 мсек

0           0           0           0           
119         0           0           60          
Заголовок блока



00 06 03 94 98 08 A3 B5   // передача: 8 байт; 19.46.48.483


00 00 12 00 AC 03 0B 00 00 06 03 94 98 08 A3 B5 01 99   // передача: 18 байт; 19.46.48.483
// приём по количеству байт: 18 из 18

01 00 12 00 AC 00 23 10 01 19 00 1E 6B 00 0A 19 F8 47   // прием: 18 байт; 19.46.48.564
// таймаут: 81 мсек


00 23 10 01 19 00 1E 6B 00 0A 19   // прием: 11 байт; 19.46.48.565
// таймаут: 82 мсек


23    10.01.19    1585 0x9498      0 - лето    период: 30  к.сумма: да 
Данные блока



00 06 03 94 A0 10 B0 7F   // передача: 8 байт; 19.46.48.671


00 00 12 00 AC 03 13 00 00 06 03 94 A0 10 B0 7F 81 E6   // передача: 18 байт; 19.46.48.671
// приём по количеству байт: 26 из 26

01 00 1A 00 AC 00 00 13 00 00 00 00 00 0A 00 00 00 00 00 00 00 00 5D DD B0 40   // прием: 26 байт; 19.46.48.769
// таймаут: 98 мсек


00 00 13 00 00 00 00 00 0A 00 00 00 00 00 00 00 00 5D DD   // прием: 19 байт; 19.46.48.770
// таймаут: 99 мсек

19          0           0           10          
0           0           0           0           
Заголовок блока



00 06 03 94 80 08 A9 B5   // передача: 8 байт; 19.46.48.873


00 00 12 00 AC 03 0B 00 00 06 03 94 80 08 A9 B5 01 99   // передача: 18 байт; 19.46.48.873
// приём по количеству байт: 18 из 18

01 00 12 00 AC 00 22 10 01 19 00 1E 6A 00 CA 45 F8 47   // прием: 18 байт; 19.46.48.953
// таймаут: 80 мсек


00 22 10 01 19 00 1E 6A 00 CA 45   // прием: 11 байт; 19.46.48.954
// таймаут: 81 мсек


22    10.01.19    1584 0x9480      0 - лето    период: 30  к.сумма: да 
Данные блока



00 06 03 94 88 10 AE 7F   // передача: 8 байт; 19.46.49.61


00 00 12 00 AC 03 13 00 00 06 03 94 88 10 AE 7F 81 E6   // передача: 18 байт; 19.46.49.61
// приём по количеству байт: 26 из 26

01 00 1A 00 AC 00 00 BA 00 00 00 00 00 57 00 B8 00 00 00 00 00 56 28 05 B0 40   // прием: 26 байт; 19.46.49.161
// таймаут: 100 мсек


00 00 BA 00 00 00 00 00 57 00 B8 00 00 00 00 00 56 28 05   // прием: 19 байт; 19.46.49.161
// таймаут: 100 мсек

186         0           0           87          
184         0           0           86          
Заголовок блока



00 06 03 94 68 08 E7 B5   // передача: 8 байт; 19.46.49.263


00 00 12 00 AC 03 0B 00 00 06 03 94 68 08 E7 B5 01 99   // передача: 18 байт; 19.46.49.263
// приём по количеству байт: 18 из 18

01 00 12 00 AC 00 21 10 01 19 00 1E 69 00 8A A0 F8 47   // прием: 18 байт; 19.46.49.343
// таймаут: 80 мсек


00 21 10 01 19 00 1E 69 00 8A A0   // прием: 11 байт; 19.46.49.343
// таймаут: 80 мсек


21    10.01.19    1583 0x9468      0 - лето    период: 30  к.сумма: да 
Данные блока



00 06 03 94 70 10 ED BF   // передача: 8 байт; 19.46.49.451


00 00 12 00 AC 03 13 00 00 06 03 94 70 10 ED BF 81 E6   // передача: 18 байт; 19.46.49.451
// приём по количеству байт: 26 из 26

01 00 1A 00 AC 00 00 B2 00 00 00 00 00 51 00 BB 00 00 00 00 00 56 38 A3 B0 40   // прием: 26 байт; 19.46.49.550
// таймаут: 99 мсек


00 00 B2 00 00 00 00 00 51 00 BB 00 00 00 00 00 56 38 A3   // прием: 19 байт; 19.46.49.550
// таймаут: 99 мсек

178         0           0           81          
187         0           0           86          
Заголовок блока



00 06 03 94 50 08 F4 75   // передача: 8 байт; 19.46.49.653


00 00 12 00 AC 03 0B 00 00 06 03 94 50 08 F4 75 01 99   // передача: 18 байт; 19.46.49.653
// приём по количеству байт: 18 из 18

01 00 12 00 AC 00 20 10 01 19 00 1E 68 FF 0A BC F8 47   // прием: 18 байт; 19.46.49.734
// таймаут: 81 мсек


00 20 10 01 19 00 1E 68 FF 0A BC   // прием: 11 байт; 19.46.49.734
// таймаут: 81 мсек


20    10.01.19    1582 0x9450      0 - лето    период: 30  к.сумма: да 
Данные блока



00 06 03 94 58 10 F3 BF   // передача: 8 байт; 19.46.49.841


00 00 12 00 AC 03 13 00 00 06 03 94 58 10 F3 BF 81 E6   // передача: 18 байт; 19.46.49.841
// приём по количеству байт: 26 из 26

01 00 1A 00 AC 00 00 99 00 00 00 00 00 43 00 A0 00 00 00 00 00 4D 6C 16 B0 40   // прием: 26 байт; 19.46.49.941
// таймаут: 100 мсек


00 00 99 00 00 00 00 00 43 00 A0 00 00 00 00 00 4D 6C 16   // прием: 19 байт; 19.46.49.941
// таймаут: 100 мсек

153         0           0           67          
160         0           0           77          
Заголовок блока



00 06 03 94 38 08 DB B5   // передача: 8 байт; 19.46.50.43


00 00 12 00 AC 03 0B 00 00 06 03 94 38 08 DB B5 01 99   // передача: 18 байт; 19.46.50.43
// приём по количеству байт: 18 из 18

01 00 12 00 AC 00 19 10 01 19 00 1E 61 00 8F D2 F8 47   // прием: 18 байт; 19.46.50.123
// таймаут: 80 мсек


00 19 10 01 19 00 1E 61 00 8F D2   // прием: 11 байт; 19.46.50.124
// таймаут: 81 мсек


19    10.01.19    1581 0x9438      0 - лето    период: 30  к.сумма: да 
Данные блока



00 06 03 94 40 10 F9 BF   // передача: 8 байт; 19.46.50.231


00 00 12 00 AC 03 13 00 00 06 03 94 40 10 F9 BF 81 E6   // передача: 18 байт; 19.46.50.231
// приём по количеству байт: 26 из 26

01 00 1A 00 AC 00 00 00 00 00 00 00 00 00 00 2A 00 00 00 00 00 12 7B BF B0 40   // прием: 26 байт; 19.46.50.330
// таймаут: 99 мсек


00 00 00 00 00 00 00 00 00 00 2A 00 00 00 00 00 12 7B BF   // прием: 19 байт; 19.46.50.331
// таймаут: 100 мсек

0           0           0           0           
42          0           0           18          
Заголовок блока



00 06 03 94 20 08 D1 B5   // передача: 8 байт; 19.46.50.433


00 00 12 00 AC 03 0B 00 00 06 03 94 20 08 D1 B5 01 99   // передача: 18 байт; 19.46.50.433
// приём по количеству байт: 18 из 18

01 00 12 00 AC 00 08 10 01 19 00 1E 50 00 5A 82 F8 47   // прием: 18 байт; 19.46.50.518
// таймаут: 85 мсек


00 08 10 01 19 00 1E 50 00 5A 82   // прием: 11 байт; 19.46.50.519
// таймаут: 86 мсек


08    10.01.19    1580 0x9420      0 - лето    период: 30  к.сумма: да 
Данные блока



00 06 03 94 28 10 D6 7F   // передача: 8 байт; 19.46.50.620


00 00 12 00 AC 03 13 00 00 06 03 94 28 10 D6 7F 81 E6   // передача: 18 байт; 19.46.50.620
// приём по количеству байт: 26 из 26

01 00 1A 00 AC 00 00 5F 00 00 00 00 00 34 00 00 00 00 00 00 00 00 09 89 B0 40   // прием: 26 байт; 19.46.50.719
// таймаут: 99 мсек


00 00 5F 00 00 00 00 00 34 00 00 00 00 00 00 00 00 09 89   // прием: 19 байт; 19.46.50.720
// таймаут: 100 мсек

95          0           0           52          
0           0           0           0           
Заголовок блока



00 06 03 94 08 08 CF B5   // передача: 8 байт; 19.46.50.823


00 00 12 00 AC 03 0B 00 00 06 03 94 08 08 CF B5 01 99   // передача: 18 байт; 19.46.50.823
// приём по количеству байт: 18 из 18

01 00 12 00 AC 00 07 10 01 19 00 1E 4F 00 12 F2 F8 47   // прием: 18 байт; 19.46.50.903
// таймаут: 80 мсек


00 07 10 01 19 00 1E 4F 00 12 F2   // прием: 11 байт; 19.46.50.904
// таймаут: 81 мсек


07    10.01.19    1579 0x9408      0 - лето    период: 30  к.сумма: да 
Данные блока



00 06 03 94 10 10 C5 BF   // передача: 8 байт; 19.46.51.10


00 00 12 00 AC 03 13 00 00 06 03 94 10 10 C5 BF 81 E6   // передача: 18 байт; 19.46.51.10
// приём по количеству байт: 26 из 26

01 00 1A 00 AC 00 00 00 00 00 00 00 00 00 00 74 00 00 00 00 00 40 45 87 B0 40   // прием: 26 байт; 19.46.51.109
// таймаут: 99 мсек


00 00 00 00 00 00 00 00 00 00 74 00 00 00 00 00 40 45 87   // прием: 19 байт; 19.46.51.109
// таймаут: 99 мсек

0           0           0           0           
116         0           0           64          
Заголовок блока



00 06 03 93 F0 08 3D B4   // передача: 8 байт; 19.46.51.213


00 00 12 00 AC 03 0B 00 00 06 03 93 F0 08 3D B4 01 99   // передача: 18 байт; 19.46.51.213
// приём по количеству байт: 18 из 18

01 00 12 00 AC 00 23 09 01 19 00 1E 64 00 87 28 F8 47   // прием: 18 байт; 19.46.51.293
// таймаут: 80 мсек


00 23 09 01 19 00 1E 64 00 87 28   // прием: 11 байт; 19.46.51.293
// таймаут: 80 мсек


23    09.01.19    1578 0x93F0      0 - лето    период: 30  к.сумма: да 
Данные блока



00 06 03 93 F8 10 3A 7E   // передача: 8 байт; 19.46.51.400


00 00 12 00 AC 03 13 00 00 06 03 93 F8 10 3A 7E 81 E6   // передача: 18 байт; 19.46.51.400
// приём по количеству байт: 26 из 26

01 00 1A 00 AC 00 00 02 00 00 00 00 00 02 00 00 00 00 00 00 00 00 EB 11 B0 40   // прием: 26 байт; 19.46.51.500
// таймаут: 100 мсек


00 00 02 00 00 00 00 00 02 00 00 00 00 00 00 00 00 EB 11   // прием: 19 байт; 19.46.51.500
// таймаут: 100 мсек

2           0           0           2           
0           0           0           0           
Заголовок блока



00 06 03 93 D8 08 23 B4   // передача: 8 байт; 19.46.51.603


00 00 12 00 AC 03 0B 00 00 06 03 93 D8 08 23 B4 01 99   // передача: 18 байт; 19.46.51.603
// приём по количеству байт: 18 из 18

01 00 12 00 AC 00 22 09 01 19 00 1E 63 00 44 D4 F8 47   // прием: 18 байт; 19.46.51.684
// таймаут: 81 мсек


00 22 09 01 19 00 1E 63 00 44 D4   // прием: 11 байт; 19.46.51.684
// таймаут: 81 мсек


22    09.01.19    1577 0x93D8      0 - лето    период: 30  к.сумма: да 
Данные блока



00 06 03 93 E0 10 30 7E   // передача: 8 байт; 19.46.51.790


00 00 12 00 AC 03 13 00 00 06 03 93 E0 10 30 7E 81 E6   // передача: 18 байт; 19.46.51.790
// приём по количеству байт: 26 из 26

01 00 1A 00 AC 00 00 B6 00 00 00 00 00 56 00 BB 00 00 00 00 00 58 9B 54 B0 40   // прием: 26 байт; 19.46.51.889
// таймаут: 99 мсек


00 00 B6 00 00 00 00 00 56 00 BB 00 00 00 00 00 58 9B 54   // прием: 19 байт; 19.46.51.889
// таймаут: 99 мсек

182         0           0           86          
187         0           0           88          
Заголовок блока



00 06 03 93 C0 08 29 B4   // передача: 8 байт; 19.46.51.993


00 00 12 00 AC 03 0B 00 00 06 03 93 C0 08 29 B4 01 99   // передача: 18 байт; 19.46.51.993
// приём по количеству байт: 18 из 18

01 00 12 00 AC 00 21 09 01 19 00 1E 62 00 05 51 F8 47   // прием: 18 байт; 19.46.52.73
// таймаут: 80 мсек


00 21 09 01 19 00 1E 62 00 05 51   // прием: 11 байт; 19.46.52.74
// таймаут: 81 мсек


21    09.01.19    1576 0x93C0      0 - лето    период: 30  к.сумма: да 
Данные блока



00 06 03 93 C8 10 2E 7E   // передача: 8 байт; 19.46.52.180


00 00 12 00 AC 03 13 00 00 06 03 93 C8 10 2E 7E 81 E6   // передача: 18 байт; 19.46.52.180
// приём по количеству байт: 26 из 26

01 00 1A 00 AC 00 00 B3 00 00 00 00 00 54 00 BE 00 00 00 00 00 56 93 F3 B0 40   // прием: 26 байт; 19.46.52.280
// таймаут: 100 мсек


00 00 B3 00 00 00 00 00 54 00 BE 00 00 00 00 00 56 93 F3   // прием: 19 байт; 19.46.52.281
// таймаут: 101 мсек

179         0           0           84          
190         0           0           86          
Заголовок блока



00 06 03 93 A8 08 06 74   // передача: 8 байт; 19.46.52.383


00 00 12 00 AC 03 0B 00 00 06 03 93 A8 08 06 74 01 99   // передача: 18 байт; 19.46.52.383
// приём по количеству байт: 18 из 18

01 00 12 00 AC 00 20 09 01 19 00 1E 61 FF 84 2D F8 47   // прием: 18 байт; 19.46.52.464
// таймаут: 81 мсек


00 20 09 01 19 00 1E 61 FF 84 2D   // прием: 11 байт; 19.46.52.465
// таймаут: 82 мсек


20    09.01.19    1575 0x93A8      0 - лето    период: 30  к.сумма: да 
Данные блока



00 06 03 93 B0 10 0C 7E   // передача: 8 байт; 19.46.52.570


00 00 12 00 AC 03 13 00 00 06 03 93 B0 10 0C 7E 81 E6   // передача: 18 байт; 19.46.52.570
// приём по количеству байт: 26 из 26

01 00 1A 00 AC 00 00 A5 00 00 00 00 00 4F 00 B9 00 00 00 00 00 54 4C 0C B0 40   // прием: 26 байт; 19.46.52.669
