

Cчетчик: номер 0

Открытие канала



00 01 30 30 30 30 30 30 0E 24   // передача: 10 байт; 19.44.53.933


00 00 14 00 AC 03 04 00 00 01 30 30 30 30 30 30 0E 24 56 4C   // передача: 20 байт; 19.44.53.933
// приём по количеству байт: 11 из 11

01 00 0B 00 AC 00 00 01 B0 2D 9C   // прием: 11 байт; 19.44.54.09
// таймаут: 76 мсек


00 00 01 B0   // прием: 4 байт; 19.44.54.09
// таймаут: 76 мсек

Канал открыт успешно


Время



00 04 00 73 00   // передача: 5 байт; 19.44.54.120


00 00 0F 00 AC 03 0B 00 00 04 00 73 00 40 2D   // передача: 15 байт; 19.44.54.120
// приём по количеству байт: 18 из 18

01 00 12 00 AC 00 55 44 19 02 15 01 19 00 EE 62 F8 47   // прием: 18 байт; 19.44.54.192
// таймаут: 72 мсек


00 55 44 19 02 15 01 19 00 EE 62   // прием: 11 байт; 19.44.54.193
// таймаут: 73 мсек

время счетчика:   19:44:55 15.01.19
день недели:      2 - вторник
сезонное время:   0 - лето

время компьютера: 19:44:54 15.01.19
разница:           + 0 секунд(а) 


К. трансформации



00 08 02 F7 C1   // передача: 5 байт; 19.44.54.308


00 00 0F 00 AC 03 0D 00 00 08 02 F7 C1 26 2D   // передача: 15 байт; 19.44.54.308
// приём по количеству байт: 20 из 20

01 00 14 00 AC 00 00 01 00 01 00 00 00 00 00 00 1B B4 80 50   // прием: 20 байт; 19.44.54.386
// таймаут: 78 мсек


00 00 01 00 01 00 00 00 00 00 00 1B B4   // прием: 13 байт; 19.44.54.386
// таймаут: 78 мсек

Ki*Ku = 1*1 = 1


К. преобразования



00 08 12 F6 0D   // передача: 5 байт; 19.44.54.495


00 00 0F 00 AC 03 06 00 00 08 12 F6 0D 9C ED   // передача: 15 байт; 19.44.54.495
// приём по количеству байт: 13 из 13

01 00 0D 00 AC 00 64 02 00 40 9B 36 99   // прием: 13 байт; 19.44.54.557
// таймаут: 62 мсек


00 64 02 00 40 9B   // прием: 6 байт; 19.44.54.558
// таймаут: 63 мсек

Kp = 1250*2 = 2500
*для использования в сумматоре СЭМ+2 К. преобразования необходимо умножать на 2

К. пропорциональности
Ke = Ki*Ku/Kp*2 = 0,0004



00 05 31 00 05 B5   // передача: 6 байт; 19.44.54.666


00 00 10 00 AC 03 13 00 00 05 31 00 05 B5 F9 B1   // передача: 16 байт; 19.44.54.666
// приём по количеству байт: 26 из 26

01 00 1A 00 AC 00 00 02 CF 66 00 00 00 00 00 00 03 A2 00 00 1D E3 04 EB B0 40   // прием: 26 байт; 19.44.54.762
// таймаут: 96 мсек


00 00 02 CF 66 00 00 00 00 00 00 03 A2 00 00 1D E3 04 EB   // прием: 19 байт; 19.44.54.762
// таймаут: 96 мсек




00 05 32 00 05 45   // передача: 6 байт; 19.44.54.869


00 00 10 00 AC 03 13 00 00 05 32 00 05 45 F9 B1   // передача: 16 байт; 19.44.54.869
// приём по количеству байт: 26 из 26

01 00 1A 00 AC 00 00 00 00 00 00 00 00 00 00 00 00 00 00 00 00 00 70 70 B0 40   // прием: 26 байт; 19.44.54.964
// таймаут: 95 мсек


00 00 00 00 00 00 00 00 00 00 00 00 00 00 00 00 00 70 70   // прием: 19 байт; 19.44.54.964
// таймаут: 95 мсек




00 05 33 00 04 D5   // передача: 6 байт; 19.44.55.72


00 00 10 00 AC 03 13 00 00 05 33 00 04 D5 F9 B1   // передача: 16 байт; 19.44.55.72
// приём по количеству байт: 26 из 26

01 00 1A 00 AC 00 00 00 00 05 00 00 00 00 00 00 00 04 00 00 00 08 8C 73 B0 40   // прием: 26 байт; 19.44.55.166
// таймаут: 94 мсек


00 00 00 00 05 00 00 00 00 00 00 00 04 00 00 00 08 8C 73   // прием: 19 байт; 19.44.55.167
// таймаут: 95 мсек




00 05 34 00 06 E5   // передача: 6 байт; 19.44.55.275


00 00 10 00 AC 03 13 00 00 05 34 00 06 E5 F9 B1   // передача: 16 байт; 19.44.55.275
// приём по количеству байт: 26 из 26

01 00 1A 00 AC 00 00 01 B9 62 00 00 00 00 00 00 03 80 00 00 0E 39 4A 74 B0 40   // прием: 26 байт; 19.44.55.369
// таймаут: 94 мсек


00 00 01 B9 62 00 00 00 00 00 00 03 80 00 00 0E 39 4A 74   // прием: 19 байт; 19.44.55.370
// таймаут: 95 мсек




00 05 35 00 07 75   // передача: 6 байт; 19.44.55.478


00 00 10 00 AC 03 13 00 00 05 35 00 07 75 F9 B1   // передача: 16 байт; 19.44.55.478
// приём по количеству байт: 26 из 26

01 00 1A 00 AC 00 00 0B 40 16 00 00 00 00 00 00 12 5B 00 00 26 06 B1 7C B0 40   // прием: 26 байт; 19.44.55.588
// таймаут: 110 мсек


00 00 0B 40 16 00 00 00 00 00 00 12 5B 00 00 26 06 B1 7C   // прием: 19 байт; 19.44.55.588
// таймаут: 110 мсек




00 05 36 00 07 85   // передача: 6 байт; 19.44.55.696


00 00 10 00 AC 03 13 00 00 05 36 00 07 85 F9 B1   // передача: 16 байт; 19.44.55.696
// приём по количеству байт: 26 из 26

01 00 1A 00 AC 00 00 0A EE 73 00 00 00 00 00 00 11 AB 00 00 25 9A 12 08 B0 40   // прием: 26 байт; 19.44.55.791
// таймаут: 95 мсек


00 00 0A EE 73 00 00 00 00 00 00 11 AB 00 00 25 9A 12 08   // прием: 19 байт; 19.44.55.791
// таймаут: 95 мсек




00 05 37 00 06 15   // передача: 6 байт; 19.44.55.899


00 00 10 00 AC 03 13 00 00 05 37 00 06 15 F9 B1   // передача: 16 байт; 19.44.55.899
// приём по количеству байт: 26 из 26

01 00 1A 00 AC 00 00 0B 4C 73 00 00 00 00 00 00 11 2A 00 00 25 EF 8D 93 B0 40   // прием: 26 байт; 19.44.55.993
// таймаут: 94 мсек


00 00 0B 4C 73 00 00 00 00 00 00 11 2A 00 00 25 EF 8D 93   // прием: 19 байт; 19.44.55.993
// таймаут: 94 мсек




00 05 38 00 03 E5   // передача: 6 байт; 19.44.56.102


00 00 10 00 AC 03 13 00 00 05 38 00 03 E5 F9 B1   // передача: 16 байт; 19.44.56.102
// приём по количеству байт: 26 из 26

01 00 1A 00 AC 00 00 0B 30 04 00 00 00 00 00 00 10 59 00 00 24 77 40 78 B0 40   // прием: 26 байт; 19.44.56.198
// таймаут: 96 мсек


00 00 0B 30 04 00 00 00 00 00 00 10 59 00 00 24 77 40 78   // прием: 19 байт; 19.44.56.198
// таймаут: 96 мсек




00 05 39 00 02 75   // передача: 6 байт; 19.44.56.304


00 00 10 00 AC 03 13 00 00 05 39 00 02 75 F9 B1   // передача: 16 байт; 19.44.56.304
// приём по количеству байт: 26 из 26

01 00 1A 00 AC 00 00 0A D4 C1 00 00 00 00 00 00 0F 78 00 00 22 07 D4 B4 B0 40   // прием: 26 байт; 19.44.56.398
// таймаут: 94 мсек


00 00 0A D4 C1 00 00 00 00 00 00 0F 78 00 00 22 07 D4 B4   // прием: 19 байт; 19.44.56.398
// таймаут: 94 мсек




00 05 3A 00 02 85   // передача: 6 байт; 19.44.56.507


00 00 10 00 AC 03 13 00 00 05 3A 00 02 85 F9 B1   // передача: 16 байт; 19.44.56.507
// приём по количеству байт: 26 из 26

01 00 1A 00 AC 00 00 0B 2A A6 00 00 00 00 00 00 10 5E 00 00 24 82 A9 C6 B0 40   // прием: 26 байт; 19.44.56.601
// таймаут: 94 мсек


00 00 0B 2A A6 00 00 00 00 00 00 10 5E 00 00 24 82 A9 C6   // прием: 19 байт; 19.44.56.601
// таймаут: 94 мсек




00 05 3B 00 03 15   // передача: 6 байт; 19.44.56.710


00 00 10 00 AC 03 13 00 00 05 3B 00 03 15 F9 B1   // передача: 16 байт; 19.44.56.710
// приём по количеству байт: 26 из 26

01 00 1A 00 AC 00 00 0A C6 B2 00 00 00 00 00 00 0E 85 00 00 21 F5 91 25 B0 40   // прием: 26 байт; 19.44.56.806
// таймаут: 96 мсек


00 00 0A C6 B2 00 00 00 00 00 00 0E 85 00 00 21 F5 91 25   // прием: 19 байт; 19.44.56.806
// таймаут: 96 мсек




00 05 3C 00 01 25   // передача: 6 байт; 19.44.56.913


00 00 10 00 AC 03 13 00 00 05 3C 00 01 25 F9 B1   // передача: 16 байт; 19.44.56.913
// приём по количеству байт: 26 из 26

01 00 1A 00 AC 00 00 0B 50 CC 00 00 00 00 00 00 12 7B 00 00 26 84 86 91 B0 40   // прием: 26 байт; 19.44.57.08
// таймаут: 95 мсек


00 00 0B 50 CC 00 00 00 00 00 00 12 7B 00 00 26 84 86 91   // прием: 19 байт; 19.44.57.08
// таймаут: 95 мсек



Импульсы по месяцам
            01.19       02.18       03.18       04.18       05.18       06.18       07.18       08.18       09.18       10.18       11.18       12.18       
            месяц 1     месяц 2     месяц 3     месяц 4     месяц 5     месяц 6     месяц 7     месяц 8     месяц 9     месяц 10    месяц 11    месяц 12    
канал A+    184166      0           5           112994      737302      716403      740467      733188      709825      731814      706226      741580      
канал A-    0           0           0           0           0           0           0           0           0           0           0           0           
канал R+    930         0           4           896         4699        4523        4394        4185        3960        4190        3717        4731        
канал R-    7651        0           8           3641        9734        9626        9711        9335        8711        9346        8693        9860        

Энергия по месяцам
            01.19       02.18       03.18       04.18       05.18       06.18       07.18       08.18       09.18       10.18       11.18       12.18       
            месяц 1     месяц 2     месяц 3     месяц 4     месяц 5     месяц 6     месяц 7     месяц 8     месяц 9     месяц 10    месяц 11    месяц 12    
канал A+    73,6664     0,0000      0,0020      45,1976     294,9208    286,5612    296,1868    293,2752    283,9300    292,7256    282,4904    296,6320    
канал A-    0,0000      0,0000      0,0000      0,0000      0,0000      0,0000      0,0000      0,0000      0,0000      0,0000      0,0000      0,0000      
канал R+    0,3720      0,0000      0,0016      0,3584      1,8796      1,8092      1,7576      1,6740      1,5840      1,6760      1,4868      1,8924      
канал R-    3,0604      0,0000      0,0032      1,4564      3,8936      3,8504      3,8844      3,7340      3,4844      3,7384      3,4772      3,9440      


Начало опроса: 19:44:53 15.01.19
Конец опроса:  19:44:57 15.01.19
Длительность опроса: - 4 секунд(а) 
 
Опрос успешно завершен


Cчетчик: номер 0

Открытие канала



00 01 30 30 30 30 30 30 0E 24   // передача: 10 байт; 19.45.02.685


00 00 14 00 AC 02 04 00 00 01 30 30 30 30 30 30 0E 24 54 CD   // передача: 20 байт; 19.45.02.685
// приём по количеству байт: 11 из 11

01 00 0B 00 AC 01 00 00 20 2D 9C   // прием: 11 байт; 19.45.02.741
// таймаут: 56 мсек


01 00 00 20   // прием: 4 байт; 19.45.02.741
// таймаут: 56 мсек

Канал открыт успешно


Время



00 04 00 73 00   // передача: 5 байт; 19.45.02.873


00 00 0F 00 AC 02 0B 00 00 04 00 73 00 81 E1   // передача: 15 байт; 19.45.02.873
// приём по количеству байт: 18 из 18

01 00 12 00 AC 01 58 44 19 02 15 01 19 01 E3 AB F8 47   // прием: 18 байт; 19.45.02.931
// таймаут: 58 мсек


01 58 44 19 02 15 01 19 01 E3 AB   // прием: 11 байт; 19.45.02.932
// таймаут: 59 мсек

время счетчика:   19:44:58 15.01.19
день недели:      2 - вторник
сезонное время:   1 - зима

время компьютера: 19:45:02 15.01.19
разница:           - 4 секунд(а) 


К. трансформации



00 08 02 F7 C1   // передача: 5 байт; 19.45.03.107


00 00 0F 00 AC 02 0D 00 00 08 02 F7 C1 E7 E1   // передача: 15 байт; 19.45.03.107
// приём по количеству байт: 20 из 20

01 00 14 00 AC 01 00 01 00 01 00 00 02 8F 5C 28 16 05 80 50   // прием: 20 байт; 19.45.03.168
// таймаут: 61 мсек


01 00 01 00 01 00 00 02 8F 5C 28 16 05   // прием: 13 байт; 19.45.03.169
// таймаут: 62 мсек

Ki*Ku = 1*1 = 1


К. преобразования



00 08 12 F6 0D   // передача: 5 байт; 19.45.03.309


00 00 0F 00 AC 02 06 00 00 08 12 F6 0D 5D 21   // передача: 15 байт; 19.45.03.309
// приём по количеству байт: 13 из 13

01 00 0D 00 AC 01 00 00 10 00 14 36 99   // прием: 13 байт; 19.45.03.360
// таймаут: 51 мсек


01 00 00 10 00 14   // прием: 6 байт; 19.45.03.360
// таймаут: 51 мсек

Kp = 5000*2 = 10000
*для использования в сумматоре СЭМ+2 К. преобразования необходимо умножать на 2

К. пропорциональности
Ke = Ki*Ku/Kp*2 = 0,0001



00 05 31 00 05 B5   // передача: 6 байт; 19.45.03.497


00 00 10 00 AC 02 13 00 00 05 31 00 05 B5 F4 21   // передача: 16 байт; 19.45.03.497
// приём по количеству байт: 26 из 26

01 00 1A 00 AC 01 00 01 BC 76 00 00 00 00 00 00 B3 40 00 00 2C 81 2C 06 B0 40   // прием: 26 байт; 19.45.03.570
// таймаут: 73 мсек


01 00 01 BC 76 00 00 00 00 00 00 B3 40 00 00 2C 81 2C 06   // прием: 19 байт; 19.45.03.570
// таймаут: 73 мсек




00 05 32 00 05 45   // передача: 6 байт; 19.45.03.668


00 00 10 00 AC 02 13 00 00 05 32 00 05 45 F4 21   // передача: 16 байт; 19.45.03.668
// приём по таймауту: 1000 мс

01 00 08 00 AC 05 BE A9   // прием: 8 байт; 19.45.05.119
// таймаут: 1451 мсек


05   // прием: 1 байт; 19.45.05.119
// таймаут: 1451 мсек

Ошибка контрольной суммы, повтор: 1
Ошибка контрольной суммы, повтор: 1



00 05 32 00 05 45   // передача: 6 байт; 19.45.05.228


00 00 10 00 AC 02 13 00 00 05 32 00 05 45 F4 21   // передача: 16 байт; 19.45.05.228
// приём по таймауту: 1000 мс

01 00 08 00 AC 05 BE A9   // прием: 8 байт; 19.45.06.680
// таймаут: 1452 мсек


05   // прием: 1 байт; 19.45.06.680
// таймаут: 1452 мсек

Ошибка контрольной суммы, повтор: 2
Ошибка контрольной суммы, повтор: 2



00 05 32 00 05 45   // передача: 6 байт; 19.45.06.788


00 00 10 00 AC 02 13 00 00 05 32 00 05 45 F4 21   // передача: 16 байт; 19.45.06.788
// приём по таймауту: 1000 мс

01 00 08 00 AC 05 BE A9   // прием: 8 байт; 19.45.08.239
// таймаут: 1451 мсек


05   // прием: 1 байт; 19.45.08.240
// таймаут: 1452 мсек

Ошибка контрольной суммы, повтор: 3
Ошибка контрольной суммы, повтор: 3



00 05 32 00 05 45   // передача: 6 байт; 19.45.08.348


00 00 10 00 AC 02 13 00 00 05 32 00 05 45 F4 21   // передача: 16 байт; 19.45.08.348
// приём по таймауту: 1000 мс

01 00 08 00 AC 05 BE A9   // прием: 8 байт; 19.45.09.799
// таймаут: 1451 мсек


05   // прием: 1 байт; 19.45.09.799
// таймаут: 1451 мсек

Ошибка контрольной суммы, повтор: 4
Ошибка контрольной суммы, повтор: 4



00 05 32 00 05 45   // передача: 6 байт; 19.45.09.908


00 00 10 00 AC 02 13 00 00 05 32 00 05 45 F4 21   // передача: 16 байт; 19.45.09.908
// приём по таймауту: 1000 мс

01 00 08 00 AC 05 BE A9   // прием: 8 байт; 19.45.11.359
// таймаут: 1451 мсек


05   // прием: 1 байт; 19.45.11.359
// таймаут: 1451 мсек

Ошибка контрольной суммы, повтор: 5
Ошибка контрольной суммы, повтор: 5



00 05 32 00 05 45   // передача: 6 байт; 19.45.11.468


00 00 10 00 AC 02 13 00 00 05 32 00 05 45 F4 21   // передача: 16 байт; 19.45.11.468


Cчетчик: номер 0

Открытие канала



00 01 30 30 30 30 30 30 0E 24   // передача: 10 байт; 19.45.15.134


00 00 14 00 AC 02 04 00 00 01 30 30 30 30 30 30 0E 24 54 CD   // передача: 20 байт; 19.45.15.134
// приём по количеству байт: 11 из 11

01 00 0B 00 AC 01 00 00 20 2D 9C   // прием: 11 байт; 19.45.15.190
// таймаут: 56 мсек


01 00 00 20   // прием: 4 байт; 19.45.15.190
// таймаут: 56 мсек

Канал открыт успешно


Время



00 04 00 73 00   // передача: 5 байт; 19.45.15.321


00 00 0F 00 AC 02 0B 00 00 04 00 73 00 81 E1   // передача: 15 байт; 19.45.15.321
// приём по количеству байт: 18 из 18

01 00 12 00 AC 01 10 45 19 02 15 01 19 01 F6 FD F8 47   // прием: 18 байт; 19.45.15.380
// таймаут: 59 мсек


01 10 45 19 02 15 01 19 01 F6 FD   // прием: 11 байт; 19.45.15.380
// таймаут: 59 мсек

время счетчика:   19:45:10 15.01.19
день недели:      2 - вторник
сезонное время:   1 - зима

время компьютера: 19:45:15 15.01.19
разница:           - 5 секунд(а) 


К. трансформации



00 08 02 F7 C1   // передача: 5 байт; 19.45.15.539


00 00 0F 00 AC 02 0D 00 00 08 02 F7 C1 E7 E1   // передача: 15 байт; 19.45.15.539
// приём по количеству байт: 20 из 20

01 00 14 00 AC 01 00 01 00 01 00 00 02 8F 5C 28 16 05 80 50   // прием: 20 байт; 19.45.15.601
// таймаут: 62 мсек


01 00 01 00 01 00 00 02 8F 5C 28 16 05   // прием: 13 байт; 19.45.15.601
// таймаут: 62 мсек

Ki*Ku = 1*1 = 1


К. преобразования



00 08 12 F6 0D   // передача: 5 байт; 19.45.15.726


00 00 0F 00 AC 02 06 00 00 08 12 F6 0D 5D 21   // передача: 15 байт; 19.45.15.726
// приём по количеству байт: 13 из 13

01 00 0D 00 AC 01 00 00 10 00 14 36 99   // прием: 13 байт; 19.45.15.777
// таймаут: 51 мсек


01 00 00 10 00 14   // прием: 6 байт; 19.45.15.777
// таймаут: 51 мсек

Kp = 5000*2 = 10000
*для использования в сумматоре СЭМ+2 К. преобразования необходимо умножать на 2

К. пропорциональности
Ke = Ki*Ku/Kp*2 = 0,0001



00 05 40 00 21 E5   // передача: 6 байт; 19.45.15.914


00 00 10 00 AC 02 13 00 00 05 40 00 21 E5 F4 21   // передача: 16 байт; 19.45.15.914
// приём по количеству байт: 26 из 26

01 00 1A 00 AC 01 00 00 05 70 00 00 00 00 00 00 00 00 00 00 01 3B DB 96 B0 40   // прием: 26 байт; 19.45.15.988
// таймаут: 74 мсек


01 00 00 05 70 00 00 00 00 00 00 00 00 00 00 01 3B DB 96   // прием: 19 байт; 19.45.15.988
// таймаут: 74 мсек



Импульсы за текущие сутки
            всего       
канал A+    1392        
канал A-    0           
канал R+    0           
канал R-    315         

Энергия за текущие сутки
            всего       
канал A+    0,1392      
канал A-    0,0000      
канал R+    0,0000      
канал R-    0,0315      


Начало опроса: 19:45:15 15.01.19
Конец опроса:  19:45:16 15.01.19
Длительность опроса: - 1 секунд(а) 
 
Опрос успешно завершен


Cчетчик: номер 0

Открытие канала



00 01 30 30 30 30 30 30 0E 24   // передача: 10 байт; 19.45.22.279


00 00 14 00 AC 02 04 00 00 01 30 30 30 30 30 30 0E 24 54 CD   // передача: 20 байт; 19.45.22.279
// приём по количеству байт: 11 из 11

01 00 0B 00 AC 01 00 00 20 2D 9C   // прием: 11 байт; 19.45.22.334
// таймаут: 55 мсек


01 00 00 20   // прием: 4 байт; 19.45.22.335
// таймаут: 56 мсек

Канал открыт успешно


Время



00 04 00 73 00   // передача: 5 байт; 19.45.22.466


00 00 0F 00 AC 02 0B 00 00 04 00 73 00 81 E1   // передача: 15 байт; 19.45.22.466
// приём по количеству байт: 18 из 18

01 00 12 00 AC 01 18 45 19 02 15 01 19 01 F7 5B F8 47   // прием: 18 байт; 19.45.22.524
// таймаут: 58 мсек


01 18 45 19 02 15 01 19 01 F7 5B   // прием: 11 байт; 19.45.22.525
// таймаут: 59 мсек

время счетчика:   19:45:18 15.01.19
день недели:      2 - вторник
сезонное время:   1 - зима

время компьютера: 19:45:22 15.01.19
разница:           - 4 секунд(а) 


К. трансформации



00 08 02 F7 C1   // передача: 5 байт; 19.45.22.685


00 00 0F 00 AC 02 0D 00 00 08 02 F7 C1 E7 E1   // передача: 15 байт; 19.45.22.685
// приём по количеству байт: 20 из 20

01 00 14 00 AC 01 00 01 00 01 00 00 02 8F 5C 28 16 05 80 50   // прием: 20 байт; 19.45.22.747
// таймаут: 62 мсек


01 00 01 00 01 00 00 02 8F 5C 28 16 05   // прием: 13 байт; 19.45.22.747
// таймаут: 62 мсек

Ki*Ku = 1*1 = 1


К. преобразования



00 08 12 F6 0D   // передача: 5 байт; 19.45.22.872


00 00 0F 00 AC 02 06 00 00 08 12 F6 0D 5D 21   // передача: 15 байт; 19.45.22.872
// приём по количеству байт: 13 из 13

01 00 0D 00 AC 01 00 00 10 00 14 36 99   // прием: 13 байт; 19.45.22.922
// таймаут: 50 мсек


01 00 00 10 00 14   // прием: 6 байт; 19.45.22.923
// таймаут: 51 мсек

Kp = 5000*2 = 10000
*для использования в сумматоре СЭМ+2 К. преобразования необходимо умножать на 2

К. пропорциональности
Ke = Ki*Ku/Kp*2 = 0,0001



00 05 40 01 E0 25   // передача: 6 байт; 19.45.23.43


00 00 10 00 AC 02 13 00 00 05 40 01 E0 25 F4 21   // передача: 16 байт; 19.45.23.43
// приём по количеству байт: 26 из 26

01 00 1A 00 AC 01 00 00 00 00 00 00 00 00 00 00 00 00 00 00 00 00 21 E0 B0 40   // прием: 26 байт; 19.45.23.116
// таймаут: 73 мсек


01 00 00 00 00 00 00 00 00 00 00 00 00 00 00 00 00 21 E0   // прием: 19 байт; 19.45.23.116
// таймаут: 73 мсек




00 05 40 02 A0 24   // передача: 6 байт; 19.45.23.215


00 00 10 00 AC 02 13 00 00 05 40 02 A0 24 F4 21   // передача: 16 байт; 19.45.23.215
// приём по количеству байт: 26 из 26

01 00 1A 00 AC 01 00 00 00 00 00 00 00 00 00 00 00 00 00 00 00 00 21 E0 B0 40   // прием: 26 байт; 19.45.23.288
// таймаут: 73 мсек


01 00 00 00 00 00 00 00 00 00 00 00 00 00 00 00 00 21 E0   // прием: 19 байт; 19.45.23.288
// таймаут: 73 мсек




00 05 40 03 61 E4   // передача: 6 байт; 19.45.23.387


00 00 10 00 AC 02 13 00 00 05 40 03 61 E4 F4 21   // передача: 16 байт; 19.45.23.387
// приём по количеству байт: 26 из 26

01 00 1A 00 AC 01 00 00 05 73 00 00 00 00 00 00 00 00 00 00 01 3C 9F 97 B0 40   // прием: 26 байт; 19.45.23.460
// таймаут: 72 мсек


01 00 00 05 73 00 00 00 00 00 00 00 00 00 00 01 3C 9F 97   // прием: 19 байт; 19.45.23.460
// таймаут: 73 мсек




00 05 40 04 20 26   // передача: 6 байт; 19.45.23.558


00 00 10 00 AC 02 13 00 00 05 40 04 20 26 F4 21   // передача: 16 байт; 19.45.23.558
// приём по количеству байт: 26 из 26

01 00 1A 00 AC 01 00 00 00 00 00 00 00 00 00 00 00 00 00 00 00 00 21 E0 B0 40   // прием: 26 байт; 19.45.23.631
// таймаут: 73 мсек


01 00 00 00 00 00 00 00 00 00 00 00 00 00 00 00 00 21 E0   // прием: 19 байт; 19.45.23.631
// таймаут: 73 мсек



Импульсы за текущие сутки (по тарифам)
            тариф 1     тариф 2     тариф 3     тариф 4     всего       
канал A+    0           0           1395        0           1395        
канал A-    0           0           0           0           0           
канал R+    0           0           0           0           0           
канал R-    0           0           316         0           316         

Энергия за текущие сутки (по тарифам)
            тариф 1     тариф 2     тариф 3     тариф 4     всего       
канал A+    0,0000      0,0000      0,1395      0,0000      0,1395      
канал A-    0,0000      0,0000      0,0000      0,0000      0,0000      
канал R+    0,0000      0,0000      0,0000      0,0000      0,0000      
канал R-    0,0000      0,0000      0,0316      0,0000      0,0316      


Начало опроса: 19:45:22 15.01.19
Конец опроса:  19:45:23 15.01.19
Длительность опроса: - 1 секунд(а) 
 
Опрос успешно завершен


Cчетчик: номер 0

Открытие канала



00 01 30 30 30 30 30 30 0E 24   // передача: 10 байт; 19.45.35.399


00 00 14 00 AC 02 04 00 00 01 30 30 30 30 30 30 0E 24 54 CD   // передача: 20 байт; 19.45.35.399
// приём по количеству байт: 11 из 11

01 00 0B 00 AC 01 00 00 20 2D 9C   // прием: 11 байт; 19.45.35.454
// таймаут: 55 мсек


01 00 00 20   // прием: 4 байт; 19.45.35.455
// таймаут: 56 мсек

Канал открыт успешно


Время



00 04 00 73 00   // передача: 5 байт; 19.45.35.586


00 00 0F 00 AC 02 0B 00 00 04 00 73 00 81 E1   // передача: 15 байт; 19.45.35.586
// приём по количеству байт: 18 из 18

01 00 12 00 AC 01 31 45 19 02 15 01 19 01 35 29 F8 47   // прием: 18 байт; 19.45.35.644
// таймаут: 58 мсек


01 31 45 19 02 15 01 19 01 35 29   // прием: 11 байт; 19.45.35.645
// таймаут: 59 мсек

время счетчика:   19:45:31 15.01.19
день недели:      2 - вторник
сезонное время:   1 - зима

время компьютера: 19:45:35 15.01.19
разница:           - 4 секунд(а) 


К. трансформации



00 08 02 F7 C1   // передача: 5 байт; 19.45.35.805


00 00 0F 00 AC 02 0D 00 00 08 02 F7 C1 E7 E1   // передача: 15 байт; 19.45.35.805
// приём по количеству байт: 20 из 20

01 00 14 00 AC 01 00 01 00 01 00 00 02 8F 5C 28 16 05 80 50   // прием: 20 байт; 19.45.35.867
// таймаут: 62 мсек


01 00 01 00 01 00 00 02 8F 5C 28 16 05   // прием: 13 байт; 19.45.35.867
// таймаут: 62 мсек

Ki*Ku = 1*1 = 1


К. преобразования



00 08 12 F6 0D   // передача: 5 байт; 19.45.35.992


00 00 0F 00 AC 02 06 00 00 08 12 F6 0D 5D 21   // передача: 15 байт; 19.45.35.992
// приём по количеству байт: 13 из 13

01 00 0D 00 AC 01 00 00 10 00 14 36 99   // прием: 13 байт; 19.45.36.43
// таймаут: 51 мсек


01 00 00 10 00 14   // прием: 6 байт; 19.45.36.43
// таймаут: 51 мсек

Kp = 5000*2 = 10000
*для использования в сумматоре СЭМ+2 К. преобразования необходимо умножать на 2

К. пропорциональности
Ke = Ki*Ku/Kp*2 = 0,0001
Указатель на вершину блоков



00 08 04 77 C3   // передача: 5 байт; 19.45.36.179


00 00 0F 00 AC 02 0A 00 00 08 04 77 C3 91 21   // передача: 15 байт; 19.45.36.179
// приём по количеству байт: 17 из 17

01 00 11 00 AC 01 B0 19 15 01 19 77 20 C9 D5 F0 FB   // прием: 17 байт; 19.45.36.236
// таймаут: 57 мсек


01 B0 19 15 01 19 77 20 C9 D5   // прием: 10 байт; 19.45.36.236
// таймаут: 57 мсек


Энергия по часам:
Вершина: 
19:30 15.01.19    1270 0x7720      переполнение: да 
Вершина с учетом смещения 0: 1270
Заголовок блока



00 06 03 77 10 08 34 43   // передача: 8 байт; 19.45.36.366


00 00 12 00 AC 02 0B 00 00 06 03 77 10 08 34 43 05 65   // передача: 18 байт; 19.45.36.366
// приём по количеству байт: 18 из 18

01 00 12 00 AC 01 19 15 01 19 01 1E 67 00 D5 1E F8 47   // прием: 18 байт; 19.45.36.440
// таймаут: 74 мсек


01 19 15 01 19 01 1E 67 00 D5 1E   // прием: 11 байт; 19.45.36.441
// таймаут: 75 мсек


19    15.01.19    1270 0x7710      1 - зима    период: 30  к.сумма: да 
Данные блока



00 06 03 77 18 10 33 89   // передача: 8 байт; 19.45.36.553


00 00 12 00 AC 02 13 00 00 06 03 77 18 10 33 89 85 1A   // передача: 18 байт; 19.45.36.553
// приём по количеству байт: 26 из 26

01 00 1A 00 AC 01 80 00 80 00 80 00 80 00 80 00 80 00 80 00 80 00 9B 36 B0 40   // прием: 26 байт; 19.45.36.639
// таймаут: 86 мсек


01 80 00 80 00 80 00 80 00 80 00 80 00 80 00 80 00 9B 36   // прием: 19 байт; 19.45.36.640
// таймаут: 87 мсек

0           0           0           0           
0           0           0           0           
Заголовок блока



00 06 03 76 F8 08 2B 83   // передача: 8 байт; 19.45.36.756


00 00 12 00 AC 02 0B 00 00 06 03 76 F8 08 2B 83 05 65   // передача: 18 байт; 19.45.36.756
// приём по количеству байт: 18 из 18

01 00 12 00 AC 01 18 15 01 19 01 1E 66 00 15 42 F8 47   // прием: 18 байт; 19.45.36.825
// таймаут: 69 мсек


01 18 15 01 19 01 1E 66 00 15 42   // прием: 11 байт; 19.45.36.825
// таймаут: 69 мсек


18    15.01.19    1269 0x76F8      1 - зима    период: 30  к.сумма: да 
Данные блока



00 06 03 77 00 10 39 89   // передача: 8 байт; 19.45.36.943


00 00 12 00 AC 02 13 00 00 06 03 77 00 10 39 89 85 1A   // передача: 18 байт; 19.45.36.943
// приём по количеству байт: 26 из 26

01 00 1A 00 AC 01 80 00 80 00 80 00 80 00 80 EA 80 00 80 00 80 34 D1 2F B0 40   // прием: 26 байт; 19.45.37.19
// таймаут: 76 мсек


01 80 00 80 00 80 00 80 00 80 EA 80 00 80 00 80 34 D1 2F   // прием: 19 байт; 19.45.37.19
// таймаут: 76 мсек

0           0           0           0           
234         0           0           52          
Заголовок блока



00 06 03 76 E0 08 21 83   // передача: 8 байт; 19.45.37.130


00 00 12 00 AC 02 0B 00 00 06 03 76 E0 08 21 83 05 65   // передача: 18 байт; 19.45.37.130
// приём по количеству байт: 18 из 18

01 00 12 00 AC 01 17 15 01 19 01 1E 65 00 55 F2 F8 47   // прием: 18 байт; 19.45.37.193
// таймаут: 63 мсек


01 17 15 01 19 01 1E 65 00 55 F2   // прием: 11 байт; 19.45.37.194
// таймаут: 64 мсек


17    15.01.19    1268 0x76E0      1 - зима    период: 30  к.сумма: да 
Данные блока



00 06 03 76 E8 10 26 49   // передача: 8 байт; 19.45.37.302


00 00 12 00 AC 02 13 00 00 06 03 76 E8 10 26 49 85 1A   // передача: 18 байт; 19.45.37.302
// приём по количеству байт: 26 из 26

01 00 1A 00 AC 01 80 00 80 00 80 00 80 00 80 00 80 00 80 00 80 00 9B 36 B0 40   // прием: 26 байт; 19.45.37.378
// таймаут: 76 мсек


01 80 00 80 00 80 00 80 00 80 00 80 00 80 00 80 00 9B 36   // прием: 19 байт; 19.45.37.379
// таймаут: 77 мсек

0           0           0           0           
0           0           0           0           
Заголовок блока



00 06 03 76 C8 08 3F 83   // передача: 8 байт; 19.45.37.489


00 00 12 00 AC 02 0B 00 00 06 03 76 C8 08 3F 83 05 65   // передача: 18 байт; 19.45.37.489
// приём по количеству байт: 18 из 18

01 00 12 00 AC 01 16 15 01 19 01 1E 64 00 95 AE F8 47   // прием: 18 байт; 19.45.37.552
// таймаут: 63 мсек


01 16 15 01 19 01 1E 64 00 95 AE   // прием: 11 байт; 19.45.37.553
// таймаут: 64 мсек


16    15.01.19    1267 0x76C8      1 - зима    период: 30  к.сумма: да 
Данные блока



00 06 03 76 D0 10 35 89   // передача: 8 байт; 19.45.37.661


00 00 12 00 AC 02 13 00 00 06 03 76 D0 10 35 89 85 1A   // передача: 18 байт; 19.45.37.661
// приём по количеству байт: 26 из 26

01 00 1A 00 AC 01 80 00 80 00 80 00 80 00 80 00 80 00 80 00 80 00 9B 36 B0 40   // прием: 26 байт; 19.45.37.737
// таймаут: 76 мсек


01 80 00 80 00 80 00 80 00 80 00 80 00 80 00 80 00 9B 36   // прием: 19 байт; 19.45.37.737
// таймаут: 76 мсек

0           0           0           0           
0           0           0           0           
Заголовок блока



00 06 03 76 B0 08 1D 83   // передача: 8 байт; 19.45.37.848


00 00 12 00 AC 02 0B 00 00 06 03 76 B0 08 1D 83 05 65   // передача: 18 байт; 19.45.37.848
// приём по количеству байт: 18 из 18

01 00 12 00 AC 01 15 15 01 19 01 1E 63 00 D7 8B F8 47   // прием: 18 байт; 19.45.37.912
// таймаут: 64 мсек


01 15 15 01 19 01 1E 63 00 D7 8B   // прием: 11 байт; 19.45.37.913
// таймаут: 65 мсек


15    15.01.19    1266 0x76B0      1 - зима    период: 30  к.сумма: да 
Данные блока



00 06 03 76 B8 10 1A 49   // передача: 8 байт; 19.45.38.35


00 00 12 00 AC 02 13 00 00 06 03 76 B8 10 1A 49 85 1A   // передача: 18 байт; 19.45.38.35
// приём по количеству байт: 26 из 26

01 00 1A 00 AC 01 80 00 80 00 80 00 80 00 80 00 80 00 80 00 80 00 9B 36 B0 40   // прием: 26 байт; 19.45.38.111
// таймаут: 76 мсек


01 80 00 80 00 80 00 80 00 80 00 80 00 80 00 80 00 9B 36   // прием: 19 байт; 19.45.38.111
// таймаут: 76 мсек

0           0           0           0           
0           0           0           0           
Заголовок блока



00 06 03 76 98 08 03 83   // передача: 8 байт; 19.45.38.222


00 00 12 00 AC 02 0B 00 00 06 03 76 98 08 03 83 05 65   // передача: 18 байт; 19.45.38.222
// приём по количеству байт: 18 из 18

01 00 12 00 AC 01 14 15 01 19 01 1E 62 00 17 D7 F8 47   // прием: 18 байт; 19.45.38.285
// таймаут: 63 мсек


01 14 15 01 19 01 1E 62 00 17 D7   // прием: 11 байт; 19.45.38.286
// таймаут: 64 мсек


14    15.01.19    1265 0x7698      1 - зима    период: 30  к.сумма: да 
Данные блока



00 06 03 76 A0 10 10 49   // передача: 8 байт; 19.45.38.410


00 00 12 00 AC 02 13 00 00 06 03 76 A0 10 10 49 85 1A   // передача: 18 байт; 19.45.38.410
// приём по количеству байт: 26 из 26

01 00 1A 00 AC 01 80 00 80 00 80 00 80 00 80 00 80 00 80 00 80 00 9B 36 B0 40   // прием: 26 байт; 19.45.38.486
// таймаут: 76 мсек


01 80 00 80 00 80 00 80 00 80 00 80 00 80 00 80 00 9B 36   // прием: 19 байт; 19.45.38.486
// таймаут: 76 мсек

0           0           0           0           
0           0           0           0           
Заголовок блока



00 06 03 76 80 08 09 83   // передача: 8 байт; 19.45.38.597


00 00 12 00 AC 02 0B 00 00 06 03 76 80 08 09 83 05 65   // передача: 18 байт; 19.45.38.597
// приём по количеству байт: 18 из 18

01 00 12 00 AC 01 13 15 01 19 01 1E 61 00 56 C1 F8 47   // прием: 18 байт; 19.45.38.661
// таймаут: 64 мсек


01 13 15 01 19 01 1E 61 00 56 C1   // прием: 11 байт; 19.45.38.661
// таймаут: 64 мсек


13    15.01.19    1264 0x7680      1 - зима    период: 30  к.сумма: да 
Данные блока



00 06 03 76 88 10 0E 49   // передача: 8 байт; 19.45.38.784


00 00 12 00 AC 02 13 00 00 06 03 76 88 10 0E 49 85 1A   // передача: 18 байт; 19.45.38.784
// приём по количеству байт: 26 из 26

01 00 1A 00 AC 01 80 00 80 00 80 00 80 00 80 00 80 00 80 00 80 00 9B 36 B0 40   // прием: 26 байт; 19.45.38.860
// таймаут: 76 мсек


01 80 00 80 00 80 00 80 00 80 00 80 00 80 00 80 00 9B 36   // прием: 19 байт; 19.45.38.860
// таймаут: 76 мсек

0           0           0           0           
0           0           0           0           
Заголовок блока



00 06 03 76 68 08 47 83   // передача: 8 байт; 19.45.38.971


00 00 12 00 AC 02 0B 00 00 06 03 76 68 08 47 83 05 65   // передача: 18 байт; 19.45.38.971
// приём по количеству байт: 18 из 18

01 00 12 00 AC 01 12 15 01 19 01 1E 60 00 96 9D F8 47   // прием: 18 байт; 19.45.39.34
// таймаут: 63 мсек


01 12 15 01 19 01 1E 60 00 96 9D   // прием: 11 байт; 19.45.39.35
// таймаут: 64 мсек


12    15.01.19    1263 0x7668      1 - зима    период: 30  к.сумма: да 
Данные блока



00 06 03 76 70 10 4D 89   // передача: 8 байт; 19.45.39.158


00 00 12 00 AC 02 13 00 00 06 03 76 70 10 4D 89 85 1A   // передача: 18 байт; 19.45.39.158
// приём по количеству байт: 26 из 26

01 00 1A 00 AC 01 80 00 80 00 80 00 80 00 80 00 80 00 80 00 80 00 9B 36 B0 40   // прием: 26 байт; 19.45.39.234
// таймаут: 76 мсек


01 80 00 80 00 80 00 80 00 80 00 80 00 80 00 80 00 9B 36   // прием: 19 байт; 19.45.39.234
// таймаут: 76 мсек

0           0           0           0           
0           0           0           0           
Заголовок блока



00 06 03 76 50 08 54 43   // передача: 8 байт; 19.45.39.346


00 00 12 00 AC 02 0B 00 00 06 03 76 50 08 54 43 05 65   // передача: 18 байт; 19.45.39.346
// приём по количеству байт: 18 из 18

01 00 12 00 AC 01 11 15 01 19 01 1E 5F 00 C7 78 F8 47   // прием: 18 байт; 19.45.39.409
// таймаут: 63 мсек


01 11 15 01 19 01 1E 5F 00 C7 78   // прием: 11 байт; 19.45.39.410
// таймаут: 64 мсек


11    15.01.19    1262 0x7650      1 - зима    период: 30  к.сумма: да 
Данные блока



00 06 03 76 58 10 53 89   // передача: 8 байт; 19.45.39.533


00 00 12 00 AC 02 13 00 00 06 03 76 58 10 53 89 85 1A   // передача: 18 байт; 19.45.39.533
// приём по количеству байт: 26 из 26

01 00 1A 00 AC 01 80 00 80 00 80 00 80 00 80 00 80 00 80 00 80 00 9B 36 B0 40   // прием: 26 байт; 19.45.39.609
// таймаут: 76 мсек


01 80 00 80 00 80 00 80 00 80 00 80 00 80 00 80 00 9B 36   // прием: 19 байт; 19.45.39.609
// таймаут: 76 мсек

0           0           0           0           
0           0           0           0           
Заголовок блока



00 06 03 76 38 08 7B 83   // передача: 8 байт; 19.45.39.720


00 00 12 00 AC 02 0B 00 00 06 03 76 38 08 7B 83 05 65   // передача: 18 байт; 19.45.39.720
// приём по количеству байт: 18 из 18

01 00 12 00 AC 01 10 15 01 19 01 1E 5E 00 07 24 F8 47   // прием: 18 байт; 19.45.39.783
// таймаут: 63 мсек


01 10 15 01 19 01 1E 5E 00 07 24   // прием: 11 байт; 19.45.39.784
// таймаут: 64 мсек


10    15.01.19    1261 0x7638      1 - зима    период: 30  к.сумма: да 
Данные блока



00 06 03 76 40 10 59 89   // передача: 8 байт; 19.45.39.907


00 00 12 00 AC 02 13 00 00 06 03 76 40 10 59 89 85 1A   // передача: 18 байт; 19.45.39.907
// приём по количеству байт: 26 из 26

01 00 1A 00 AC 01 80 00 80 00 80 00 80 00 80 00 80 00 80 00 80 00 9B 36 B0 40   // прием: 26 байт; 19.45.39.983
// таймаут: 76 мсек


01 80 00 80 00 80 00 80 00 80 00 80 00 80 00 80 00 9B 36   // прием: 19 байт; 19.45.39.983
// таймаут: 76 мсек

0           0           0           0           
0           0           0           0           
Заголовок блока



00 06 03 76 20 08 71 83   // передача: 8 байт; 19.45.40.94


00 00 12 00 AC 02 0B 00 00 06 03 76 20 08 71 83 05 65   // передача: 18 байт; 19.45.40.94
// приём по количеству байт: 18 из 18

01 00 12 00 AC 01 09 15 01 19 01 1E 57 00 C0 12 F8 47   // прием: 18 байт; 19.45.40.157
// таймаут: 63 мсек


01 09 15 01 19 01 1E 57 00 C0 12   // прием: 11 байт; 19.45.40.158
// таймаут: 64 мсек


09    15.01.19    1260 0x7620      1 - зима    период: 30  к.сумма: да 
Данные блока



00 06 03 76 28 10 76 49   // передача: 8 байт; 19.45.40.281


00 00 12 00 AC 02 13 00 00 06 03 76 28 10 76 49 85 1A   // передача: 18 байт; 19.45.40.281
// приём по количеству байт: 26 из 26

01 00 1A 00 AC 01 80 00 80 00 80 00 80 00 80 00 80 00 80 00 80 00 9B 36 B0 40   // прием: 26 байт; 19.45.40.357
// таймаут: 76 мсек


01 80 00 80 00 80 00 80 00 80 00 80 00 80 00 80 00 9B 36   // прием: 19 байт; 19.45.40.357
// таймаут: 76 мсек

0           0           0           0           
0           0           0           0           
Заголовок блока



00 06 03 76 08 08 6F 83   // передача: 8 байт; 19.45.40.469


00 00 12 00 AC 02 0B 00 00 06 03 76 08 08 6F 83 05 65   // передача: 18 байт; 19.45.40.469
// приём по количеству байт: 18 из 18

01 00 12 00 AC 01 08 15 01 19 01 1E 56 00 00 4E F8 47   // прием: 18 байт; 19.45.40.538
// таймаут: 69 мсек


01 08 15 01 19 01 1E 56 00 00 4E   // прием: 11 байт; 19.45.40.538
// таймаут: 69 мсек


08    15.01.19    1259 0x7608      1 - зима    период: 30  к.сумма: да 
Данные блока



00 06 03 76 10 10 65 89   // передача: 8 байт; 19.45.40.656


00 00 12 00 AC 02 13 00 00 06 03 76 10 10 65 89 85 1A   // передача: 18 байт; 19.45.40.656
// приём по количеству байт: 26 из 26

01 00 1A 00 AC 01 81 11 80 00 80 00 80 43 80 00 80 00 80 00 80 00 AE 99 B0 40   // прием: 26 байт; 19.45.40.732
// таймаут: 76 мсек


01 81 11 80 00 80 00 80 43 80 00 80 00 80 00 80 00 AE 99   // прием: 19 байт; 19.45.40.732
// таймаут: 76 мсек

273         0           0           67          
0           0           0           0           
Заголовок блока



00 06 03 75 F0 08 DC 43   // передача: 8 байт; 19.45.40.843


00 00 12 00 AC 02 0B 00 00 06 03 75 F0 08 DC 43 05 65   // передача: 18 байт; 19.45.40.843
// приём по количеству байт: 18 из 18

01 00 12 00 AC 01 07 15 01 19 01 1E 55 00 40 FE F8 47   // прием: 18 байт; 19.45.40.907
// таймаут: 64 мсек


01 07 15 01 19 01 1E 55 00 40 FE   // прием: 11 байт; 19.45.40.908
// таймаут: 65 мсек


07    15.01.19    1258 0x75F0      1 - зима    период: 30  к.сумма: да 
Данные блока



00 06 03 75 F8 10 DB 89   // передача: 8 байт; 19.45.41.30


00 00 12 00 AC 02 13 00 00 06 03 75 F8 10 DB 89 85 1A   // передача: 18 байт; 19.45.41.30
// приём по количеству байт: 26 из 26

01 00 1A 00 AC 01 80 00 80 00 80 00 80 00 80 00 80 00 80 00 80 00 9B 36 B0 40   // прием: 26 байт; 19.45.41.106
// таймаут: 76 мсек


01 80 00 80 00 80 00 80 00 80 00 80 00 80 00 80 00 9B 36   // прием: 19 байт; 19.45.41.106
// таймаут: 76 мсек

0           0           0           0           
0           0           0           0           
Заголовок блока



00 06 03 75 D8 08 C2 43   // передача: 8 байт; 19.45.41.217


00 00 12 00 AC 02 0B 00 00 06 03 75 D8 08 C2 43 05 65   // передача: 18 байт; 19.45.41.217
// приём по количеству байт: 18 из 18

01 00 12 00 AC 01 06 15 01 19 01 1E 54 00 80 A2 F8 47   // прием: 18 байт; 19.45.41.284
// таймаут: 67 мсек


01 06 15 01 19 01 1E 54 00 80 A2   // прием: 11 байт; 19.45.41.286
// таймаут: 69 мсек


06    15.01.19    1257 0x75D8      1 - зима    период: 30  к.сумма: да 
Данные блока



00 06 03 75 E0 10 D1 89   // передача: 8 байт; 19.45.41.405


00 00 12 00 AC 02 13 00 00 06 03 75 E0 10 D1 89 85 1A   // передача: 18 байт; 19.45.41.405
// приём по количеству байт: 26 из 26

01 00 1A 00 AC 01 80 00 80 00 80 00 80 00 80 00 80 00 80 00 80 00 9B 36 B0 40   // прием: 26 байт; 19.45.41.481
// таймаут: 76 мсек


01 80 00 80 00 80 00 80 00 80 00 80 00 80 00 80 00 9B 36   // прием: 19 байт; 19.45.41.482
// таймаут: 77 мсек

0           0           0           0           
0           0           0           0           
Заголовок блока


// версия от 6 сентября 2014 года
