

Cчетчик: номер 0

Открытие канала



00 01 30 30 30 30 30 30 0E 24   // передача: 10 байт; 07.51.18.289
// приём по таймауту: 1000 мс
Нет ответа от устройства, повтор: 1
Нет ответа от устройства, повтор: 1



00 01 30 30 30 30 30 30 0E 24   // передача: 10 байт; 07.51.19.304
// приём по таймауту: 1000 мс
Нет ответа от устройства, повтор: 2
Нет ответа от устройства, повтор: 2



00 01 30 30 30 30 30 30 0E 24   // передача: 10 байт; 07.51.20.318
// приём по таймауту: 1000 мс
Нет ответа от устройства, повтор: 3
Нет ответа от устройства, повтор: 3



00 01 30 30 30 30 30 30 0E 24   // передача: 10 байт; 07.51.21.332
// приём по таймауту: 1000 мс
Нет ответа от устройства, повтор: 4
Нет ответа от устройства, повтор: 4



00 01 30 30 30 30 30 30 0E 24   // передача: 10 байт; 07.51.22.346
// приём по таймауту: 1000 мс
Нет ответа от устройства, повтор: 5
Нет ответа от устройства, повтор: 5



00 01 30 30 30 30 30 30 0E 24   // передача: 10 байт; 07.51.23.468


00 00 14 00 AC 02 04 00 00 01 30 30 30 30 30 30 0E 24 54 CD   // передача: 20 байт; 07.51.23.468
// приём по количеству байт: 11 из 11

01 00 0B 00 AC 01 00 00 20 2D 9C   // прием: 11 байт; 07.51.23.523
// таймаут: 55 мсек


01 00 00 20   // прием: 4 байт; 07.51.23.524
// таймаут: 56 мсек

Канал открыт успешно


Версия



00 08 03 36 01   // передача: 5 байт; 07.51.23.624


00 00 0F 00 AC 02 06 00 00 08 03 36 01 5D 21   // передача: 15 байт; 07.51.23.624
// приём по количеству байт: 13 из 13

01 00 0D 00 AC 01 1C 1A 02 4A BF 36 99   // прием: 13 байт; 07.51.23.674
// таймаут: 50 мсек


01 1C 1A 02 4A BF   // прием: 6 байт; 07.51.23.675
// таймаут: 51 мсек

22.20.2


Начало опроса: 07:51:18 22.01.19
Конец опроса:  07:51:23 22.01.19
Длительность опроса: - 5 секунд(а) 
 
Опрос успешно завершен


Cчетчик: номер 0

Открытие канала



00 01 30 30 30 30 30 30 0E 24   // передача: 10 байт; 07.51.29.646


00 00 14 00 AC 02 04 00 00 01 30 30 30 30 30 30 0E 24 54 CD   // передача: 20 байт; 07.51.29.646
// приём по количеству байт: 11 из 11

01 00 0B 00 AC 01 00 00 20 2D 9C   // прием: 11 байт; 07.51.29.701
// таймаут: 55 мсек


01 00 00 20   // прием: 4 байт; 07.51.29.702
// таймаут: 56 мсек

Канал открыт успешно


Время



00 04 00 73 00   // передача: 5 байт; 07.51.29.818


00 00 0F 00 AC 02 0B 00 00 04 00 73 00 81 E1   // передача: 15 байт; 07.51.29.818
// приём по количеству байт: 18 из 18

01 00 12 00 AC 01 20 51 07 02 22 01 19 01 AC 22 F8 47   // прием: 18 байт; 07.51.29.876
// таймаут: 58 мсек


01 20 51 07 02 22 01 19 01 AC 22   // прием: 11 байт; 07.51.29.877
// таймаут: 59 мсек

время счетчика:   07:51:20 22.01.19
день недели:      2 - вторник
сезонное время:   1 - зима

время компьютера: 07:51:29 22.01.19
разница:           - 9 секунд(а) 


Версия



00 08 03 36 01   // передача: 5 байт; 07.51.30.20


00 00 0F 00 AC 02 06 00 00 08 03 36 01 5D 21   // передача: 15 байт; 07.51.30.20
// приём по количеству байт: 13 из 13

01 00 0D 00 AC 01 1C 1A 02 4A BF 36 99   // прием: 13 байт; 07.51.30.70
// таймаут: 50 мсек


01 1C 1A 02 4A BF   // прием: 6 байт; 07.51.30.71
// таймаут: 51 мсек

22.20.2
Указатель на вершину блоков



00 08 04 77 C3   // передача: 5 байт; 07.51.30.176


00 00 0F 00 AC 02 0A 00 00 08 04 77 C3 91 21   // передача: 15 байт; 07.51.30.176
// приём по количеству байт: 17 из 17

01 00 11 00 AC 01 B0 07 22 01 19 85 C0 7B 47 F0 FB   // прием: 17 байт; 07.51.30.233
// таймаут: 57 мсек


01 B0 07 22 01 19 85 C0 7B 47   // прием: 10 байт; 07.51.30.233
// таймаут: 57 мсек


Энергия по часам:
Вершина: 
07:30 22.01.19    1426 0x85C0      переполнение: да 
Вершина с учетом смещения 0: 1426
Заголовок блока



00 06 03 85 B0 08 ED B0   // передача: 8 байт; 07.51.30.364


00 00 12 00 AC 02 0B 00 00 06 03 85 B0 08 ED B0 05 65   // передача: 18 байт; 07.51.30.364
// приём по количеству байт: 18 из 18

01 00 12 00 AC 01 07 22 01 19 01 1E 62 00 10 0D F8 47   // прием: 18 байт; 07.51.30.439
// таймаут: 75 мсек


01 07 22 01 19 01 1E 62 00 10 0D   // прием: 11 байт; 07.51.30.439
// таймаут: 75 мсек


07    22.01.19    1426 0x85B0      1 - зима    период: 30  к.сумма: да 
Данные блока



00 06 03 85 B8 10 EA 7A   // передача: 8 байт; 07.51.30.551


00 00 12 00 AC 02 13 00 00 06 03 85 B8 10 EA 7A 85 1A   // передача: 18 байт; 07.51.30.551
// приём по количеству байт: 26 из 26

01 00 1A 00 AC 01 80 00 80 00 80 00 80 00 80 00 80 00 80 00 80 00 9B 36 B0 40   // прием: 26 байт; 07.51.30.639
// таймаут: 88 мсек


01 80 00 80 00 80 00 80 00 80 00 80 00 80 00 80 00 9B 36   // прием: 19 байт; 07.51.30.640
// таймаут: 89 мсек

0           0           0           0           
0           0           0           0           
Заголовок блока



00 06 03 85 98 08 F3 B0   // передача: 8 байт; 07.51.30.754


00 00 12 00 AC 02 0B 00 00 06 03 85 98 08 F3 B0 05 65   // передача: 18 байт; 07.51.30.754
// приём по количеству байт: 18 из 18

01 00 12 00 AC 01 06 22 01 19 01 1E 61 00 D1 31 F8 47   // прием: 18 байт; 07.51.30.817
// таймаут: 63 мсек


01 06 22 01 19 01 1E 61 00 D1 31   // прием: 11 байт; 07.51.30.818
// таймаут: 64 мсек


06    22.01.19    1425 0x8598      1 - зима    период: 30  к.сумма: да 
Данные блока



00 06 03 85 A0 10 E0 7A   // передача: 8 байт; 07.51.30.925


00 00 12 00 AC 02 13 00 00 06 03 85 A0 10 E0 7A 85 1A   // передача: 18 байт; 07.51.30.925
// приём по количеству байт: 26 из 26

01 00 1A 00 AC 01 80 00 80 00 80 00 80 00 80 00 80 00 80 00 80 00 9B 36 B0 40   // прием: 26 байт; 07.51.31.01
// таймаут: 76 мсек


01 80 00 80 00 80 00 80 00 80 00 80 00 80 00 80 00 9B 36   // прием: 19 байт; 07.51.31.01
// таймаут: 76 мсек

0           0           0           0           
0           0           0           0           
Заголовок блока



00 06 03 85 80 08 F9 B0   // передача: 8 байт; 07.51.31.112


00 00 12 00 AC 02 0B 00 00 06 03 85 80 08 F9 B0 05 65   // передача: 18 байт; 07.51.31.112
// приём по количеству байт: 18 из 18

01 00 12 00 AC 01 05 22 01 19 01 1E 60 00 90 B4 F8 47   // прием: 18 байт; 07.51.31.175
// таймаут: 63 мсек


01 05 22 01 19 01 1E 60 00 90 B4   // прием: 11 байт; 07.51.31.176
// таймаут: 64 мсек


05    22.01.19    1424 0x8580      1 - зима    период: 30  к.сумма: да 
Данные блока



00 06 03 85 88 10 FE 7A   // передача: 8 байт; 07.51.31.284


00 00 12 00 AC 02 13 00 00 06 03 85 88 10 FE 7A 85 1A   // передача: 18 байт; 07.51.31.284
// приём по количеству байт: 26 из 26

01 00 1A 00 AC 01 80 00 80 00 80 00 80 00 80 00 80 00 80 00 80 00 9B 36 B0 40   // прием: 26 байт; 07.51.31.360
// таймаут: 76 мсек


01 80 00 80 00 80 00 80 00 80 00 80 00 80 00 80 00 9B 36   // прием: 19 байт; 07.51.31.360
// таймаут: 76 мсек

0           0           0           0           
0           0           0           0           
Заголовок блока



00 06 03 85 68 08 B7 B0   // передача: 8 байт; 07.51.31.471


00 00 12 00 AC 02 0B 00 00 06 03 85 68 08 B7 B0 05 65   // передача: 18 байт; 07.51.31.471
// приём по количеству байт: 18 из 18

01 00 12 00 AC 01 04 22 01 19 01 1E 5F 00 40 88 F8 47   // прием: 18 байт; 07.51.31.534
// таймаут: 63 мсек


01 04 22 01 19 01 1E 5F 00 40 88   // прием: 11 байт; 07.51.31.535
// таймаут: 64 мсек


04    22.01.19    1423 0x8568      1 - зима    период: 30  к.сумма: да 
Данные блока



00 06 03 85 70 10 BD BA   // передача: 8 байт; 07.51.31.643


00 00 12 00 AC 02 13 00 00 06 03 85 70 10 BD BA 85 1A   // передача: 18 байт; 07.51.31.643
// приём по количеству байт: 26 из 26

01 00 1A 00 AC 01 80 00 80 00 80 00 80 00 80 00 80 00 80 00 80 00 9B 36 B0 40   // прием: 26 байт; 07.51.31.719
// таймаут: 76 мсек


01 80 00 80 00 80 00 80 00 80 00 80 00 80 00 80 00 9B 36   // прием: 19 байт; 07.51.31.720
// таймаут: 77 мсек

0           0           0           0           
0           0           0           0           
Заголовок блока



00 06 03 85 50 08 A4 70   // передача: 8 байт; 07.51.31.830


00 00 12 00 AC 02 0B 00 00 06 03 85 50 08 A4 70 05 65   // передача: 18 байт; 07.51.31.830
// приём по количеству байт: 18 из 18

01 00 12 00 AC 01 03 22 01 19 01 1E 5E 00 00 FE F8 47   // прием: 18 байт; 07.51.31.893
// таймаут: 63 мсек


01 03 22 01 19 01 1E 5E 00 00 FE   // прием: 11 байт; 07.51.31.894
// таймаут: 64 мсек


03    22.01.19    1422 0x8550      1 - зима    период: 30  к.сумма: да 
Данные блока



00 06 03 85 58 10 A3 BA   // передача: 8 байт; 07.51.32.01


00 00 12 00 AC 02 13 00 00 06 03 85 58 10 A3 BA 85 1A   // передача: 18 байт; 07.51.32.01
// приём по количеству байт: 26 из 26

01 00 1A 00 AC 01 80 00 80 00 80 00 80 00 80 00 80 00 80 00 80 00 9B 36 B0 40   // прием: 26 байт; 07.51.32.77
// таймаут: 76 мсек


01 80 00 80 00 80 00 80 00 80 00 80 00 80 00 80 00 9B 36   // прием: 19 байт; 07.51.32.77
// таймаут: 76 мсек

0           0           0           0           
0           0           0           0           
Заголовок блока



00 06 03 85 38 08 8B B0   // передача: 8 байт; 07.51.32.189


00 00 12 00 AC 02 0B 00 00 06 03 85 38 08 8B B0 05 65   // передача: 18 байт; 07.51.32.189
// приём по количеству байт: 18 из 18

01 00 12 00 AC 01 02 22 01 19 01 1E 5D 00 C1 C2 F8 47   // прием: 18 байт; 07.51.32.252
// таймаут: 63 мсек


01 02 22 01 19 01 1E 5D 00 C1 C2   // прием: 11 байт; 07.51.32.253
// таймаут: 64 мсек


02    22.01.19    1421 0x8538      1 - зима    период: 30  к.сумма: да 
Данные блока



00 06 03 85 40 10 A9 BA   // передача: 8 байт; 07.51.32.360


00 00 12 00 AC 02 13 00 00 06 03 85 40 10 A9 BA 85 1A   // передача: 18 байт; 07.51.32.360
// приём по количеству байт: 26 из 26

01 00 1A 00 AC 01 80 00 80 00 80 00 80 00 80 00 80 00 80 00 80 00 9B 36 B0 40   // прием: 26 байт; 07.51.32.436
// таймаут: 76 мсек


01 80 00 80 00 80 00 80 00 80 00 80 00 80 00 80 00 9B 36   // прием: 19 байт; 07.51.32.437
// таймаут: 77 мсек

0           0           0           0           
0           0           0           0           
Заголовок блока



00 06 03 85 20 08 81 B0   // передача: 8 байт; 07.51.32.547


00 00 12 00 AC 02 0B 00 00 06 03 85 20 08 81 B0 05 65   // передача: 18 байт; 07.51.32.547
// приём по количеству байт: 18 из 18

01 00 12 00 AC 01 01 22 01 19 01 1E 5C 00 80 47 F8 47   // прием: 18 байт; 07.51.32.610
// таймаут: 63 мсек


01 01 22 01 19 01 1E 5C 00 80 47   // прием: 11 байт; 07.51.32.611
// таймаут: 64 мсек


01    22.01.19    1420 0x8520      1 - зима    период: 30  к.сумма: да 
Данные блока



00 06 03 85 28 10 86 7A   // передача: 8 байт; 07.51.32.719


00 00 12 00 AC 02 13 00 00 06 03 85 28 10 86 7A 85 1A   // передача: 18 байт; 07.51.32.719
// приём по количеству байт: 26 из 26

01 00 1A 00 AC 01 80 00 80 00 80 00 80 00 80 00 80 00 80 00 80 00 9B 36 B0 40   // прием: 26 байт; 07.51.32.795
// таймаут: 76 мсек


01 80 00 80 00 80 00 80 00 80 00 80 00 80 00 80 00 9B 36   // прием: 19 байт; 07.51.32.795
// таймаут: 76 мсек

0           0           0           0           
0           0           0           0           
Заголовок блока



00 06 03 85 08 08 9F B0   // передача: 8 байт; 07.51.32.906


00 00 12 00 AC 02 0B 00 00 06 03 85 08 08 9F B0 05 65   // передача: 18 байт; 07.51.32.906
// приём по количеству байт: 18 из 18

01 00 12 00 AC 01 00 22 01 19 01 1E 5B 00 43 BB F8 47   // прием: 18 байт; 07.51.32.969
// таймаут: 63 мсек


01 00 22 01 19 01 1E 5B 00 43 BB   // прием: 11 байт; 07.51.32.970
// таймаут: 64 мсек


00    22.01.19    1419 0x8508      1 - зима    период: 30  к.сумма: да 
Данные блока



00 06 03 85 10 10 95 BA   // передача: 8 байт; 07.51.33.78


00 00 12 00 AC 02 13 00 00 06 03 85 10 10 95 BA 85 1A   // передача: 18 байт; 07.51.33.78
// приём по количеству байт: 26 из 26

01 00 1A 00 AC 01 80 00 80 00 80 00 80 00 80 00 80 00 80 00 80 00 9B 36 B0 40   // прием: 26 байт; 07.51.33.154
// таймаут: 76 мсек


01 80 00 80 00 80 00 80 00 80 00 80 00 80 00 80 00 9B 36   // прием: 19 байт; 07.51.33.155
// таймаут: 77 мсек

0           0           0           0           
0           0           0           0           
Заголовок блока



00 06 03 84 F0 08 8D B0   // передача: 8 байт; 07.51.33.265


00 00 12 00 AC 02 0B 00 00 06 03 84 F0 08 8D B0 05 65   // передача: 18 байт; 07.51.33.265
// приём по количеству байт: 18 из 18

01 00 12 00 AC 01 23 21 01 19 01 1E 7D 00 28 D6 F8 47   // прием: 18 байт; 07.51.33.328
// таймаут: 63 мсек


01 23 21 01 19 01 1E 7D 00 28 D6   // прием: 11 байт; 07.51.33.329
// таймаут: 64 мсек


23    21.01.19    1418 0x84F0      1 - зима    период: 30  к.сумма: да 
Данные блока



00 06 03 84 F8 10 8A 7A   // передача: 8 байт; 07.51.33.437


00 00 12 00 AC 02 13 00 00 06 03 84 F8 10 8A 7A 85 1A   // передача: 18 байт; 07.51.33.437
// приём по количеству байт: 8 из 7

01 00 1A 00 AC 01 80 00   // прием: 8 байт; 07.51.33.489
// таймаут: 52 мсек

Ошибка туннеля - нет ответа, повтор: 1
Ошибка туннеля - нет ответа, повтор: 1



00 06 03 84 F8 10 8A 7A   // передача: 8 байт; 07.51.33.593


00 00 12 00 AC 02 07 00 00 06 03 84 F8 10 8A 7A C5 5A   // передача: 18 байт; 07.51.33.593
// приём по количеству байт: 18 из 14

80 00 80 00 80 00 80 00 80 00 80 00 80 00 9B 36 B0 40   // прием: 18 байт; 07.51.33.594
// таймаут: 1 мсек

Ошибка туннеля - нет ответа, повтор: 2
Ошибка туннеля - нет ответа, повтор: 2



00 06 03 84 F8 10 8A 7A   // передача: 8 байт; 07.51.33.702


00 00 12 00 AC 02 0E 00 00 06 03 84 F8 10 8A 7A 15 75   // передача: 18 байт; 07.51.33.702
// приём по количеству байт: 21 из 21

01 00 15 00 AC 01 80 00 80 00 80 00 80 00 80 00 80 00 80 1C 6B   // прием: 21 байт; 07.51.33.769
// таймаут: 67 мсек


01 80 00 80 00 80 00 80 00 80 00 80 00 80   // прием: 14 байт; 07.51.33.769
// таймаут: 67 мсек

// приём по таймауту: 1000 мс

// версия от 6 сентября 2014 года
