

Cчетчик: номер 0

Открытие канала



00 01 30 30 30 30 30 30 0E 24   // передача: 10 байт; 08.00.21.531


00 00 14 00 AC 02 04 00 00 01 30 30 30 30 30 30 0E 24 54 CD   // передача: 20 байт; 08.00.21.531
// приём по количеству байт: 11 из 11

01 00 0B 00 AC 01 00 00 20 2D 9C   // прием: 11 байт; 08.00.21.586
// таймаут: 55 мсек


01 00 00 20   // прием: 4 байт; 08.00.21.587
// таймаут: 56 мсек

Канал открыт успешно


Время



00 04 00 73 00   // передача: 5 байт; 08.00.21.687


00 00 0F 00 AC 02 0B 00 00 04 00 73 00 81 E1   // передача: 15 байт; 08.00.21.687
// приём по количеству байт: 18 из 18

01 00 12 00 AC 01 12 00 08 02 22 01 19 01 6E D5 F8 47   // прием: 18 байт; 08.00.21.746
// таймаут: 59 мсек


01 12 00 08 02 22 01 19 01 6E D5   // прием: 11 байт; 08.00.21.746
// таймаут: 59 мсек

время счетчика:   08:00:12 22.01.19
день недели:      2 - вторник
сезонное время:   1 - зима

время компьютера: 08:00:21 22.01.19
разница:           - 9 секунд(а) 


Версия



00 08 03 36 01   // передача: 5 байт; 08.00.21.859


00 00 0F 00 AC 02 06 00 00 08 03 36 01 5D 21   // передача: 15 байт; 08.00.21.859
// приём по количеству байт: 13 из 13

01 00 0D 00 AC 01 1C 1A 02 4A BF 36 99   // прием: 13 байт; 08.00.21.910
// таймаут: 51 мсек


01 1C 1A 02 4A BF   // прием: 6 байт; 08.00.21.910
// таймаут: 51 мсек

22.20.2
Указатель на вершину блоков



00 08 04 77 C3   // передача: 5 байт; 08.00.22.15


00 00 0F 00 AC 02 0A 00 00 08 04 77 C3 91 21   // передача: 15 байт; 08.00.22.15
// приём по количеству байт: 17 из 17

01 00 11 00 AC 01 80 08 22 01 19 85 D0 4A 77 F0 FB   // прием: 17 байт; 08.00.22.72
// таймаут: 57 мсек


01 80 08 22 01 19 85 D0 4A 77   // прием: 10 байт; 08.00.22.72
// таймаут: 57 мсек


Энергия по часам:
Вершина: 
08:00 22.01.19    1427 0x85D0      переполнение: да 
Вершина с учетом смещения 0: 1427
Заголовок блока



00 06 03 85 C8 08 CF B0   // передача: 8 байт; 08.00.22.186


00 00 12 00 AC 02 0B 00 00 06 03 85 C8 08 CF B0 05 65   // передача: 18 байт; 08.00.22.186
// приём по количеству байт: 18 из 18

01 00 12 00 AC 01 08 22 01 19 01 1E 63 00 51 DD F8 47   // прием: 18 байт; 08.00.22.261
// таймаут: 75 мсек


01 08 22 01 19 01 1E 63 00 51 DD   // прием: 11 байт; 08.00.22.262
// таймаут: 76 мсек


08    22.01.19    1427 0x85C8      1 - зима    период: 30  к.сумма: да 
Данные блока



00 06 03 85 D0 10 C5 BA   // передача: 8 байт; 08.00.22.373


00 00 12 00 AC 02 13 00 00 06 03 85 D0 10 C5 BA 85 1A   // передача: 18 байт; 08.00.22.373
// приём по количеству байт: 26 из 26

01 00 1A 00 AC 01 80 00 80 00 80 00 80 00 80 00 80 00 80 00 80 00 9B 36 B0 40   // прием: 26 байт; 08.00.22.460
// таймаут: 87 мсек


01 80 00 80 00 80 00 80 00 80 00 80 00 80 00 80 00 9B 36   // прием: 19 байт; 08.00.22.461
// таймаут: 88 мсек

0           0           0           0           
0           0           0           0           
Заголовок блока



00 06 03 85 B0 08 ED B0   // передача: 8 байт; 08.00.22.561


00 00 12 00 AC 02 0B 00 00 06 03 85 B0 08 ED B0 05 65   // передача: 18 байт; 08.00.22.561
// приём по количеству байт: 18 из 18

01 00 12 00 AC 01 07 22 01 19 01 1E 62 00 10 0D F8 47   // прием: 18 байт; 08.00.22.636
// таймаут: 75 мсек


01 07 22 01 19 01 1E 62 00 10 0D   // прием: 11 байт; 08.00.22.637
// таймаут: 76 мсек


07    22.01.19    1426 0x85B0      1 - зима    период: 30  к.сумма: да 
Данные блока



00 06 03 85 B8 10 EA 7A   // передача: 8 байт; 08.00.22.748


00 00 12 00 AC 02 13 00 00 06 03 85 B8 10 EA 7A 85 1A   // передача: 18 байт; 08.00.22.748
// приём по количеству байт: 26 из 26

01 00 1A 00 AC 01 80 00 80 00 80 00 80 00 81 CB 80 00 80 00 80 7E A0 16 B0 40   // прием: 26 байт; 08.00.22.824
// таймаут: 76 мсек


01 80 00 80 00 80 00 80 00 81 CB 80 00 80 00 80 7E A0 16   // прием: 19 байт; 08.00.22.824
// таймаут: 76 мсек

0           0           0           0           
459         0           0           126         
Заголовок блока



00 06 03 85 98 08 F3 B0   // передача: 8 байт; 08.00.22.935


00 00 12 00 AC 02 0B 00 00 06 03 85 98 08 F3 B0 05 65   // передача: 18 байт; 08.00.22.935
// приём по количеству байт: 18 из 18

01 00 12 00 AC 01 06 22 01 19 01 1E 61 00 D1 31 F8 47   // прием: 18 байт; 08.00.22.998
// таймаут: 63 мсек


01 06 22 01 19 01 1E 61 00 D1 31   // прием: 11 байт; 08.00.22.999
// таймаут: 64 мсек


06    22.01.19    1425 0x8598      1 - зима    период: 30  к.сумма: да 
Данные блока



00 06 03 85 A0 10 E0 7A   // передача: 8 байт; 08.00.23.106


00 00 12 00 AC 02 13 00 00 06 03 85 A0 10 E0 7A 85 1A   // передача: 18 байт; 08.00.23.106
// приём по количеству байт: 26 из 26

01 00 1A 00 AC 01 80 00 80 00 80 00 80 00 80 00 80 00 80 00 80 00 9B 36 B0 40   // прием: 26 байт; 08.00.23.182
// таймаут: 76 мсек


01 80 00 80 00 80 00 80 00 80 00 80 00 80 00 80 00 9B 36   // прием: 19 байт; 08.00.23.182
// таймаут: 76 мсек

0           0           0           0           
0           0           0           0           
Заголовок блока



00 06 03 85 80 08 F9 B0   // передача: 8 байт; 08.00.23.294


00 00 12 00 AC 02 0B 00 00 06 03 85 80 08 F9 B0 05 65   // передача: 18 байт; 08.00.23.294
// приём по количеству байт: 18 из 18

01 00 12 00 AC 01 05 22 01 19 01 1E 60 00 90 B4 F8 47   // прием: 18 байт; 08.00.23.357
// таймаут: 63 мсек


01 05 22 01 19 01 1E 60 00 90 B4   // прием: 11 байт; 08.00.23.358
// таймаут: 64 мсек


05    22.01.19    1424 0x8580      1 - зима    период: 30  к.сумма: да 
Данные блока



00 06 03 85 88 10 FE 7A   // передача: 8 байт; 08.00.23.465


00 00 12 00 AC 02 13 00 00 06 03 85 88 10 FE 7A 85 1A   // передача: 18 байт; 08.00.23.465
// приём по количеству байт: 26 из 26

01 00 1A 00 AC 01 80 00 80 00 80 00 80 00 80 00 80 00 80 00 80 00 9B 36 B0 40   // прием: 26 байт; 08.00.23.541
// таймаут: 76 мсек


01 80 00 80 00 80 00 80 00 80 00 80 00 80 00 80 00 9B 36   // прием: 19 байт; 08.00.23.541
// таймаут: 76 мсек

0           0           0           0           
0           0           0           0           
Заголовок блока



00 06 03 85 68 08 B7 B0   // передача: 8 байт; 08.00.23.652


00 00 12 00 AC 02 0B 00 00 06 03 85 68 08 B7 B0 05 65   // передача: 18 байт; 08.00.23.652
// приём по количеству байт: 18 из 18

01 00 12 00 AC 01 04 22 01 19 01 1E 5F 00 40 88 F8 47   // прием: 18 байт; 08.00.23.715
// таймаут: 63 мсек


01 04 22 01 19 01 1E 5F 00 40 88   // прием: 11 байт; 08.00.23.716
// таймаут: 64 мсек


04    22.01.19    1423 0x8568      1 - зима    период: 30  к.сумма: да 
Данные блока



00 06 03 85 70 10 BD BA   // передача: 8 байт; 08.00.23.824


00 00 12 00 AC 02 13 00 00 06 03 85 70 10 BD BA 85 1A   // передача: 18 байт; 08.00.23.824
// приём по количеству байт: 26 из 26

01 00 1A 00 AC 01 80 00 80 00 80 00 80 00 80 00 80 00 80 00 80 00 9B 36 B0 40   // прием: 26 байт; 08.00.23.900
// таймаут: 76 мсек


01 80 00 80 00 80 00 80 00 80 00 80 00 80 00 80 00 9B 36   // прием: 19 байт; 08.00.23.900
// таймаут: 76 мсек

0           0           0           0           
0           0           0           0           
Заголовок блока



00 06 03 85 50 08 A4 70   // передача: 8 байт; 08.00.24.11


00 00 12 00 AC 02 0B 00 00 06 03 85 50 08 A4 70 05 65   // передача: 18 байт; 08.00.24.11
// приём по количеству байт: 18 из 18

01 00 12 00 AC 01 03 22 01 19 01 1E 5E 00 00 FE F8 47   // прием: 18 байт; 08.00.24.74
// таймаут: 63 мсек


01 03 22 01 19 01 1E 5E 00 00 FE   // прием: 11 байт; 08.00.24.75
// таймаут: 64 мсек


03    22.01.19    1422 0x8550      1 - зима    период: 30  к.сумма: да 
Данные блока



00 06 03 85 58 10 A3 BA   // передача: 8 байт; 08.00.24.183


00 00 12 00 AC 02 13 00 00 06 03 85 58 10 A3 BA 85 1A   // передача: 18 байт; 08.00.24.183
// приём по количеству байт: 26 из 26

01 00 1A 00 AC 01 80 00 80 00 80 00 80 00 80 00 80 00 80 00 80 00 9B 36 B0 40   // прием: 26 байт; 08.00.24.259
// таймаут: 76 мсек


01 80 00 80 00 80 00 80 00 80 00 80 00 80 00 80 00 9B 36   // прием: 19 байт; 08.00.24.259
// таймаут: 76 мсек

0           0           0           0           
0           0           0           0           
Заголовок блока



00 06 03 85 38 08 8B B0   // передача: 8 байт; 08.00.24.370


00 00 12 00 AC 02 0B 00 00 06 03 85 38 08 8B B0 05 65   // передача: 18 байт; 08.00.24.370
// приём по количеству байт: 18 из 18

01 00 12 00 AC 01 02 22 01 19 01 1E 5D 00 C1 C2 F8 47   // прием: 18 байт; 08.00.24.433
// таймаут: 63 мсек


01 02 22 01 19 01 1E 5D 00 C1 C2   // прием: 11 байт; 08.00.24.434
// таймаут: 64 мсек


02    22.01.19    1421 0x8538      1 - зима    период: 30  к.сумма: да 
Данные блока



00 06 03 85 40 10 A9 BA   // передача: 8 байт; 08.00.24.542


00 00 12 00 AC 02 13 00 00 06 03 85 40 10 A9 BA 85 1A   // передача: 18 байт; 08.00.24.542
// приём по количеству байт: 26 из 26

01 00 1A 00 AC 01 80 00 80 00 80 00 80 00 80 00 80 00 80 00 80 00 9B 36 B0 40   // прием: 26 байт; 08.00.24.618
// таймаут: 76 мсек


01 80 00 80 00 80 00 80 00 80 00 80 00 80 00 80 00 9B 36   // прием: 19 байт; 08.00.24.618
// таймаут: 76 мсек

0           0           0           0           
0           0           0           0           
Заголовок блока



00 06 03 85 20 08 81 B0   // передача: 8 байт; 08.00.24.729


00 00 12 00 AC 02 0B 00 00 06 03 85 20 08 81 B0 05 65   // передача: 18 байт; 08.00.24.729
// приём по количеству байт: 18 из 18

01 00 12 00 AC 01 01 22 01 19 01 1E 5C 00 80 47 F8 47   // прием: 18 байт; 08.00.24.792
// таймаут: 63 мсек


01 01 22 01 19 01 1E 5C 00 80 47   // прием: 11 байт; 08.00.24.793
// таймаут: 64 мсек


01    22.01.19    1420 0x8520      1 - зима    период: 30  к.сумма: да 
Данные блока



00 06 03 85 28 10 86 7A   // передача: 8 байт; 08.00.24.900


00 00 12 00 AC 02 13 00 00 06 03 85 28 10 86 7A 85 1A   // передача: 18 байт; 08.00.24.900
// приём по количеству байт: 26 из 26

01 00 1A 00 AC 01 80 00 80 00 80 00 80 00 80 00 80 00 80 00 80 00 9B 36 B0 40   // прием: 26 байт; 08.00.24.976
// таймаут: 76 мсек


01 80 00 80 00 80 00 80 00 80 00 80 00 80 00 80 00 9B 36   // прием: 19 байт; 08.00.24.976
// таймаут: 76 мсек

0           0           0           0           
0           0           0           0           
Заголовок блока



00 06 03 85 08 08 9F B0   // передача: 8 байт; 08.00.25.88


00 00 12 00 AC 02 0B 00 00 06 03 85 08 08 9F B0 05 65   // передача: 18 байт; 08.00.25.88
// приём по количеству байт: 18 из 18

01 00 12 00 AC 01 00 22 01 19 01 1E 5B 00 43 BB F8 47   // прием: 18 байт; 08.00.25.151
// таймаут: 63 мсек


01 00 22 01 19 01 1E 5B 00 43 BB   // прием: 11 байт; 08.00.25.152
// таймаут: 63 мсек


00    22.01.19    1419 0x8508      1 - зима    период: 30  к.сумма: да 
Данные блока



00 06 03 85 10 10 95 BA   // передача: 8 байт; 08.00.25.259


00 00 12 00 AC 02 13 00 00 06 03 85 10 10 95 BA 85 1A   // передача: 18 байт; 08.00.25.259
// приём по количеству байт: 26 из 26

01 00 1A 00 AC 01 80 00 80 00 80 00 80 00 80 00 80 00 80 00 80 00 9B 36 B0 40   // прием: 26 байт; 08.00.25.335
// таймаут: 76 мсек


01 80 00 80 00 80 00 80 00 80 00 80 00 80 00 80 00 9B 36   // прием: 19 байт; 08.00.25.335
// таймаут: 76 мсек

0           0           0           0           
0           0           0           0           
Заголовок блока



00 06 03 84 F0 08 8D B0   // передача: 8 байт; 08.00.25.446


00 00 12 00 AC 02 0B 00 00 06 03 84 F0 08 8D B0 05 65   // передача: 18 байт; 08.00.25.446
// приём по количеству байт: 18 из 18

01 00 12 00 AC 01 23 21 01 19 01 1E 7D 00 28 D6 F8 47   // прием: 18 байт; 08.00.25.509
// таймаут: 63 мсек


01 23 21 01 19 01 1E 7D 00 28 D6   // прием: 11 байт; 08.00.25.510
// таймаут: 64 мсек


23    21.01.19    1418 0x84F0      1 - зима    период: 30  к.сумма: да 
Данные блока



00 06 03 84 F8 10 8A 7A   // передача: 8 байт; 08.00.25.618


00 00 12 00 AC 02 13 00 00 06 03 84 F8 10 8A 7A 85 1A   // передача: 18 байт; 08.00.25.618
// приём по количеству байт: 26 из 26

01 00 1A 00 AC 01 80 00 80 00 80 00 80 00 80 00 80 00 80 00 80 00 9B 36 B0 40   // прием: 26 байт; 08.00.25.694
// таймаут: 76 мсек


01 80 00 80 00 80 00 80 00 80 00 80 00 80 00 80 00 9B 36   // прием: 19 байт; 08.00.25.694
// таймаут: 76 мсек

0           0           0           0           
0           0           0           0           
Заголовок блока



00 06 03 84 D8 08 93 B0   // передача: 8 байт; 08.00.25.805


00 00 12 00 AC 02 0B 00 00 06 03 84 D8 08 93 B0 05 65   // передача: 18 байт; 08.00.25.805
// приём по количеству байт: 18 из 18

01 00 12 00 AC 01 22 21 01 19 01 1E 7C 00 E8 8A F8 47   // прием: 18 байт; 08.00.25.874
// таймаут: 69 мсек


01 22 21 01 19 01 1E 7C 00 E8 8A   // прием: 11 байт; 08.00.25.875
// таймаут: 70 мсек


22    21.01.19    1417 0x84D8      1 - зима    период: 30  к.сумма: да 
Данные блока



00 06 03 84 E0 10 80 7A   // передача: 8 байт; 08.00.25.993


00 00 12 00 AC 02 13 00 00 06 03 84 E0 10 80 7A 85 1A   // передача: 18 байт; 08.00.25.993
// приём по количеству байт: 26 из 26

01 00 1A 00 AC 01 81 71 80 00 80 00 80 5D 80 00 80 00 80 00 80 00 4F 11 B0 40   // прием: 26 байт; 08.00.26.69
// таймаут: 76 мсек


01 81 71 80 00 80 00 80 5D 80 00 80 00 80 00 80 00 4F 11   // прием: 19 байт; 08.00.26.69
// таймаут: 76 мсек

369         0           0           93          
0           0           0           0           
Заголовок блока



00 06 03 84 C0 08 99 B0   // передача: 8 байт; 08.00.26.181


00 00 12 00 AC 02 0B 00 00 06 03 84 C0 08 99 B0 05 65   // передача: 18 байт; 08.00.26.181
// приём по количеству байт: 18 из 18

01 00 12 00 AC 01 21 21 01 19 01 1E 7B 00 AA AF F8 47   // прием: 18 байт; 08.00.26.250
// таймаут: 69 мсек


01 21 21 01 19 01 1E 7B 00 AA AF   // прием: 11 байт; 08.00.26.250
// таймаут: 69 мсек


21    21.01.19    1416 0x84C0      1 - зима    период: 30  к.сумма: да 
Данные блока



00 06 03 84 C8 10 9E 7A   // передача: 8 байт; 08.00.26.368


00 00 12 00 AC 02 13 00 00 06 03 84 C8 10 9E 7A 85 1A   // передача: 18 байт; 08.00.26.368
// приём по количеству байт: 26 из 26

01 00 1A 00 AC 01 01 E7 00 00 00 00 00 77 01 F3 00 00 00 00 00 7C 07 EA B0 40   // прием: 26 байт; 08.00.26.444
// таймаут: 76 мсек


01 01 E7 00 00 00 00 00 77 01 F3 00 00 00 00 00 7C 07 EA   // прием: 19 байт; 08.00.26.444
// таймаут: 76 мсек

487         0           0           119         
499         0           0           124         
Заголовок блока



00 06 03 84 A8 08 B6 70   // передача: 8 байт; 08.00.26.555


00 00 12 00 AC 02 0B 00 00 06 03 84 A8 08 B6 70 05 65   // передача: 18 байт; 08.00.26.555
// приём по количеству байт: 18 из 18

01 00 12 00 AC 01 20 21 01 19 01 1E 7A 00 6A F3 F8 47   // прием: 18 байт; 08.00.26.624
// таймаут: 69 мсек


01 20 21 01 19 01 1E 7A 00 6A F3   // прием: 11 байт; 08.00.26.624
// таймаут: 69 мсек


20    21.01.19    1415 0x84A8      1 - зима    период: 30  к.сумма: да 
Данные блока



00 06 03 84 B0 10 BC 7A   // передача: 8 байт; 08.00.26.742


00 00 12 00 AC 02 13 00 00 06 03 84 B0 10 BC 7A 85 1A   // передача: 18 байт; 08.00.26.742
// приём по количеству байт: 26 из 26

01 00 1A 00 AC 01 80 00 80 00 80 00 80 00 81 76 80 00 80 00 80 59 8D 07 B0 40   // прием: 26 байт; 08.00.26.818
// таймаут: 76 мсек


01 80 00 80 00 80 00 80 00 81 76 80 00 80 00 80 59 8D 07   // прием: 19 байт; 08.00.26.818
// таймаут: 76 мсек

0           0           0           0           
374         0           0           89          
Заголовок блока



00 06 03 84 90 08 A5 B0   // передача: 8 байт; 08.00.26.929


00 00 12 00 AC 02 0B 00 00 06 03 84 90 08 A5 B0 05 65   // передача: 18 байт; 08.00.26.929
// приём по количеству байт: 18 из 18

01 00 12 00 AC 01 19 21 01 19 01 1E 73 00 AF DD F8 47   // прием: 18 байт; 08.00.26.999
// таймаут: 70 мсек


01 19 21 01 19 01 1E 73 00 AF DD   // прием: 11 байт; 08.00.26.999
// таймаут: 70 мсек


19    21.01.19    1414 0x8490      1 - зима    период: 30  к.сумма: да 
Данные блока



00 06 03 84 98 10 A2 7A   // передача: 8 байт; 08.00.27.116


00 00 12 00 AC 02 13 00 00 06 03 84 98 10 A2 7A 85 1A   // передача: 18 байт; 08.00.27.116
// приём по количеству байт: 26 из 26

01 00 1A 00 AC 01 02 2A 00 00 00 00 00 82 81 C1 80 00 80 00 80 6C 3C B5 B0 40   // прием: 26 байт; 08.00.27.192
// таймаут: 76 мсек


01 02 2A 00 00 00 00 00 82 81 C1 80 00 80 00 80 6C 3C B5   // прием: 19 байт; 08.00.27.192
// таймаут: 76 мсек

554         0           0           130         
449         0           0           108         
Заголовок блока



00 06 03 84 78 08 EB B0   // передача: 8 байт; 08.00.27.304


00 00 12 00 AC 02 0B 00 00 06 03 84 78 08 EB B0 05 65   // передача: 18 байт; 08.00.27.304
// приём по количеству байт: 18 из 18

01 00 12 00 AC 01 18 21 01 19 01 1E 72 00 6F 81 F8 47   // прием: 18 байт; 08.00.27.373
// таймаут: 69 мсек


01 18 21 01 19 01 1E 72 00 6F 81   // прием: 11 байт; 08.00.27.373
// таймаут: 69 мсек


18    21.01.19    1413 0x8478      1 - зима    период: 30  к.сумма: да 
Данные блока



00 06 03 84 80 10 A8 7A   // передача: 8 байт; 08.00.27.491


00 00 12 00 AC 02 13 00 00 06 03 84 80 10 A8 7A 85 1A   // передача: 18 байт; 08.00.27.491
// приём по количеству байт: 26 из 26

01 00 1A 00 AC 01 80 00 80 00 80 00 80 00 80 95 80 00 80 00 80 23 1F E6 B0 40   // прием: 26 байт; 08.00.27.567
// таймаут: 76 мсек


01 80 00 80 00 80 00 80 00 80 95 80 00 80 00 80 23 1F E6   // прием: 19 байт; 08.00.27.567
// таймаут: 76 мсек

0           0           0           0           
149         0           0           35          
Заголовок блока



00 06 03 84 60 08 E1 B0   // передача: 8 байт; 08.00.27.678


00 00 12 00 AC 02 0B 00 00 06 03 84 60 08 E1 B0 05 65   // передача: 18 байт; 08.00.27.678
// приём по количеству байт: 18 из 18

01 00 12 00 AC 01 17 21 01 19 01 1E 71 00 2F 31 F8 47   // прием: 18 байт; 08.00.27.741
// таймаут: 63 мсек


01 17 21 01 19 01 1E 71 00 2F 31   // прием: 11 байт; 08.00.27.742
// таймаут: 64 мсек


17    21.01.19    1412 0x8460      1 - зима    период: 30  к.сумма: да 
Данные блока



00 06 03 84 68 10 E6 7A   // передача: 8 байт; 08.00.27.850


00 00 12 00 AC 02 13 00 00 06 03 84 68 10 E6 7A 85 1A   // передача: 18 байт; 08.00.27.850
// приём по количеству байт: 26 из 26

01 00 1A 00 AC 01 80 00 80 00 80 00 80 00 80 00 80 00 80 00 80 00 9B 36 B0 40   // прием: 26 байт; 08.00.27.926
// таймаут: 76 мсек


01 80 00 80 00 80 00 80 00 80 00 80 00 80 00 80 00 9B 36   // прием: 19 байт; 08.00.27.926
// таймаут: 76 мсек

0           0           0           0           
0           0           0           0           
Заголовок блока



00 06 03 84 48 08 FF B0   // передача: 8 байт; 08.00.28.37


00 00 12 00 AC 02 0B 00 00 06 03 84 48 08 FF B0 05 65   // передача: 18 байт; 08.00.28.37
// приём по количеству байт: 18 из 18

01 00 12 00 AC 01 16 21 01 19 01 1E 70 00 EF 6D F8 47   // прием: 18 байт; 08.00.28.100
// таймаут: 63 мсек


01 16 21 01 19 01 1E 70 00 EF 6D   // прием: 11 байт; 08.00.28.100
// таймаут: 63 мсек


16    21.01.19    1411 0x8448      1 - зима    период: 30  к.сумма: да 
Данные блока



00 06 03 84 50 10 F5 BA   // передача: 8 байт; 08.00.28.208


00 00 12 00 AC 02 13 00 00 06 03 84 50 10 F5 BA 85 1A   // передача: 18 байт; 08.00.28.208
// приём по количеству байт: 26 из 26

01 00 1A 00 AC 01 80 00 80 00 80 00 80 00 80 00 80 00 80 00 80 00 9B 36 B0 40   // прием: 26 байт; 08.00.28.284
// таймаут: 76 мсек


01 80 00 80 00 80 00 80 00 80 00 80 00 80 00 80 00 9B 36   // прием: 19 байт; 08.00.28.284
// таймаут: 76 мсек

0           0           0           0           
0           0           0           0           
Заголовок блока



00 06 03 84 30 08 DD B0   // передача: 8 байт; 08.00.28.396


00 00 12 00 AC 02 0B 00 00 06 03 84 30 08 DD B0 05 65   // передача: 18 байт; 08.00.28.396
// приём по количеству байт: 18 из 18

01 00 12 00 AC 01 15 21 01 19 01 1E 6F 00 A7 48 F8 47   // прием: 18 байт; 08.00.28.459
// таймаут: 63 мсек


01 15 21 01 19 01 1E 6F 00 A7 48   // прием: 11 байт; 08.00.28.460
// таймаут: 64 мсек


15    21.01.19    1410 0x8430      1 - зима    период: 30  к.сумма: да 
Данные блока



00 06 03 84 38 10 DA 7A   // передача: 8 байт; 08.00.28.567


00 00 12 00 AC 02 13 00 00 06 03 84 38 10 DA 7A 85 1A   // передача: 18 байт; 08.00.28.567
// приём по количеству байт: 26 из 26

01 00 1A 00 AC 01 80 00 80 00 80 00 80 00 80 00 80 00 80 00 80 00 9B 36 B0 40   // прием: 26 байт; 08.00.28.643
// таймаут: 76 мсек


01 80 00 80 00 80 00 80 00 80 00 80 00 80 00 80 00 9B 36   // прием: 19 байт; 08.00.28.643
// таймаут: 76 мсек

0           0           0           0           
0           0           0           0           
Заголовок блока



00 06 03 84 18 08 C3 B0   // передача: 8 байт; 08.00.28.754


00 00 12 00 AC 02 0B 00 00 06 03 84 18 08 C3 B0 05 65   // передача: 18 байт; 08.00.28.754
// приём по количеству байт: 18 из 18

01 00 12 00 AC 01 14 21 01 19 01 1E 6E 00 67 14 F8 47   // прием: 18 байт; 08.00.28.817
// таймаут: 63 мсек


01 14 21 01 19 01 1E 6E 00 67 14   // прием: 11 байт; 08.00.28.818
// таймаут: 64 мсек


14    21.01.19    1409 0x8418      1 - зима    период: 30  к.сумма: да 
Данные блока



00 06 03 84 20 10 D0 7A   // передача: 8 байт; 08.00.28.942


00 00 12 00 AC 02 13 00 00 06 03 84 20 10 D0 7A 85 1A   // передача: 18 байт; 08.00.28.942
// приём по количеству байт: 26 из 26

01 00 1A 00 AC 01 80 00 80 00 80 00 80 00 80 00 80 00 80 00 80 00 9B 36 B0 40   // прием: 26 байт; 08.00.29.18
// таймаут: 76 мсек


01 80 00 80 00 80 00 80 00 80 00 80 00 80 00 80 00 9B 36   // прием: 19 байт; 08.00.29.19
// таймаут: 77 мсек

0           0           0           0           
0           0           0           0           
Заголовок блока



00 06 03 84 00 08 C9 B0   // передача: 8 байт; 08.00.29.129


00 00 12 00 AC 02 0B 00 00 06 03 84 00 08 C9 B0 05 65   // передача: 18 байт; 08.00.29.129
// приём по количеству байт: 18 из 18

01 00 12 00 AC 01 13 21 01 19 01 1E 6D 00 26 02 F8 47   // прием: 18 байт; 08.00.29.192
// таймаут: 63 мсек


01 13 21 01 19 01 1E 6D 00 26 02   // прием: 11 байт; 08.00.29.193
// таймаут: 64 мсек


13    21.01.19    1408 0x8400      1 - зима    период: 30  к.сумма: да 
Данные блока



00 06 03 84 08 10 CE 7A   // передача: 8 байт; 08.00.29.300


00 00 12 00 AC 02 13 00 00 06 03 84 08 10 CE 7A 85 1A   // передача: 18 байт; 08.00.29.300
// приём по количеству байт: 26 из 26

01 00 1A 00 AC 01 80 00 80 00 80 00 80 00 80 00 80 00 80 00 80 00 9B 36 B0 40   // прием: 26 байт; 08.00.29.376
// таймаут: 76 мсек


01 80 00 80 00 80 00 80 00 80 00 80 00 80 00 80 00 9B 36   // прием: 19 байт; 08.00.29.376
// таймаут: 76 мсек

0           0           0           0           
0           0           0           0           
Заголовок блока



00 06 03 83 E8 08 36 71   // передача: 8 байт; 08.00.29.488


00 00 12 00 AC 02 0B 00 00 06 03 83 E8 08 36 71 05 65   // передача: 18 байт; 08.00.29.488
// приём по количеству байт: 18 из 18

01 00 12 00 AC 01 12 21 01 19 01 1E 6C 00 E6 5E F8 47   // прием: 18 байт; 08.00.29.551
// таймаут: 63 мсек


01 12 21 01 19 01 1E 6C 00 E6 5E   // прием: 11 байт; 08.00.29.552
// таймаут: 64 мсек


12    21.01.19    1407 0x83E8      1 - зима    период: 30  к.сумма: да 
Данные блока



00 06 03 83 F0 10 3C 7B   // передача: 8 байт; 08.00.29.659


00 00 12 00 AC 02 13 00 00 06 03 83 F0 10 3C 7B 85 1A   // передача: 18 байт; 08.00.29.659
// приём по количеству байт: 26 из 26

01 00 1A 00 AC 01 80 00 80 00 80 00 80 00 80 00 80 00 80 00 80 00 9B 36 B0 40   // прием: 26 байт; 08.00.29.735
// таймаут: 76 мсек


01 80 00 80 00 80 00 80 00 80 00 80 00 80 00 80 00 9B 36   // прием: 19 байт; 08.00.29.735
// таймаут: 76 мсек

0           0           0           0           
0           0           0           0           
Заголовок блока



00 06 03 83 D0 08 25 B1   // передача: 8 байт; 08.00.29.846


00 00 12 00 AC 02 0B 00 00 06 03 83 D0 08 25 B1 05 65   // передача: 18 байт; 08.00.29.846
// приём по количеству байт: 18 из 18

01 00 12 00 AC 01 11 21 01 19 01 1E 6B 00 A4 7B F8 47   // прием: 18 байт; 08.00.29.909
// таймаут: 63 мсек


01 11 21 01 19 01 1E 6B 00 A4 7B   // прием: 11 байт; 08.00.29.910
// таймаут: 64 мсек


11    21.01.19    1406 0x83D0      1 - зима    период: 30  к.сумма: да 
Данные блока



00 06 03 83 D8 10 22 7B   // передача: 8 байт; 08.00.30.18


00 00 12 00 AC 02 13 00 00 06 03 83 D8 10 22 7B 85 1A   // передача: 18 байт; 08.00.30.18
// приём по количеству байт: 26 из 26

01 00 1A 00 AC 01 80 00 80 00 80 00 80 00 80 00 80 00 80 00 80 00 9B 36 B0 40   // прием: 26 байт; 08.00.30.94
// таймаут: 76 мсек


01 80 00 80 00 80 00 80 00 80 00 80 00 80 00 80 00 9B 36   // прием: 19 байт; 08.00.30.94
// таймаут: 76 мсек

0           0           0           0           
0           0           0           0           
Заголовок блока



00 06 03 83 B8 08 0A 71   // передача: 8 байт; 08.00.30.205


00 00 12 00 AC 02 0B 00 00 06 03 83 B8 08 0A 71 05 65   // передача: 18 байт; 08.00.30.205
// приём по количеству байт: 18 из 18

01 00 12 00 AC 01 10 21 01 19 01 1E 6A 00 64 27 F8 47   // прием: 18 байт; 08.00.30.268
// таймаут: 63 мсек


01 10 21 01 19 01 1E 6A 00 64 27   // прием: 11 байт; 08.00.30.269
// таймаут: 64 мсек


10    21.01.19    1405 0x83B8      1 - зима    период: 30  к.сумма: да 
Данные блока



00 06 03 83 C0 10 28 7B   // передача: 8 байт; 08.00.30.392


00 00 12 00 AC 02 13 00 00 06 03 83 C0 10 28 7B 85 1A   // передача: 18 байт; 08.00.30.392
// приём по количеству байт: 26 из 26

01 00 1A 00 AC 01 80 00 80 00 80 00 80 00 80 00 80 00 80 00 80 00 9B 36 B0 40   // прием: 26 байт; 08.00.30.468
// таймаут: 76 мсек


01 80 00 80 00 80 00 80 00 80 00 80 00 80 00 80 00 9B 36   // прием: 19 байт; 08.00.30.468
// таймаут: 76 мсек

0           0           0           0           
0           0           0           0           
Заголовок блока



00 06 03 83 A0 08 00 71   // передача: 8 байт; 08.00.30.580


00 00 12 00 AC 02 0B 00 00 06 03 83 A0 08 00 71 05 65   // передача: 18 байт; 08.00.30.580
// приём по количеству байт: 18 из 18

01 00 12 00 AC 01 09 21 01 19 01 1E 63 00 A3 11 F8 47   // прием: 18 байт; 08.00.30.643
// таймаут: 63 мсек


01 09 21 01 19 01 1E 63 00 A3 11   // прием: 11 байт; 08.00.30.644
// таймаут: 64 мсек


09    21.01.19    1404 0x83A0      1 - зима    период: 30  к.сумма: да 
Данные блока



00 06 03 83 A8 10 07 BB   // передача: 8 байт; 08.00.30.751


00 00 12 00 AC 02 13 00 00 06 03 83 A8 10 07 BB 85 1A   // передача: 18 байт; 08.00.30.751
// приём по количеству байт: 26 из 26

01 00 1A 00 AC 01 80 00 80 00 80 00 80 00 80 00 80 00 80 00 80 00 9B 36 B0 40   // прием: 26 байт; 08.00.30.827
// таймаут: 76 мсек


01 80 00 80 00 80 00 80 00 80 00 80 00 80 00 80 00 9B 36   // прием: 19 байт; 08.00.30.828
// таймаут: 77 мсек

0           0           0           0           
0           0           0           0           


------------------------------------------------------------
сутки 21.01 
00.00       
00.30       
01.00       
01.30       
02.00       
02.30       
03.00       
03.30       
04.00       
04.30       
05.00       
05.30       
06.00       
06.30       
07.00       
07.30       
08.00       
08.30       
09.00       0,0000      0,0000      0,0000      0,0000      
09.30       0,0000      0,0000      0,0000      0,0000      
10.00       0,0000      0,0000      0,0000      0,0000      
10.30       0,0000      0,0000      0,0000      0,0000      
11.00       0,0000      0,0000      0,0000      0,0000      
11.30       0,0000      0,0000      0,0000      0,0000      
12.00       0,0000      0,0000      0,0000      0,0000      
12.30       0,0000      0,0000      0,0000      0,0000      
13.00       0,0000      0,0000      0,0000      0,0000      
13.30       0,0000      0,0000      0,0000      0,0000      
14.00       0,0000      0,0000      0,0000      0,0000      
14.30       0,0000      0,0000      0,0000      0,0000      
15.00       0,0000      0,0000      0,0000      0,0000      
15.30       0,0000      0,0000      0,0000      0,0000      
16.00       0,0000      0,0000      0,0000      0,0000      
16.30       0,0000      0,0000      0,0000      0,0000      
17.00       0,0000      0,0000      0,0000      0,0000      
17.30       0,0000      0,0000      0,0000      0,0000      
18.00       0,0000      0,0000      0,0000      0,0000      
18.30       0,0000      0,0000      0,0000      0,0000      
19.00       0,0000      0,0000      0,0000      0,0000      
19.30       0,0000      0,0000      0,0000      0,0000      
20.00       0,0000      0,0000      0,0000      0,0000      
20.30       0,0000      0,0000      0,0000      0,0000      
21.00       0,0000      0,0000      0,0000      0,0000      
21.30       0,0000      0,0000      0,0000      0,0000      
22.00       0,0000      0,0000      0,0000      0,0000      
22.30       0,0000      0,0000      0,0000      0,0000      
23.00       0,0000      0,0000      0,0000      0,0000      
23.30       0,0000      0,0000      0,0000      0,0000      

------------------------------------------------------------
сутки 22.01 
00.00       0,0000      0,0000      0,0000      0,0000      
00.30       0,0000      0,0000      0,0000      0,0000      
01.00       0,0000      0,0000      0,0000      0,0000      
01.30       0,0000      0,0000      0,0000      0,0000      
02.00       0,0000      0,0000      0,0000      0,0000      
02.30       0,0000      0,0000      0,0000      0,0000      
03.00       0,0000      0,0000      0,0000      0,0000      
03.30       0,0000      0,0000      0,0000      0,0000      
04.00       0,0000      0,0000      0,0000      0,0000      
04.30       0,0000      0,0000      0,0000      0,0000      
05.00       0,0000      0,0000      0,0000      0,0000      
05.30       0,0000      0,0000      0,0000      0,0000      
06.00       0,0000      0,0000      0,0000      0,0000      
06.30       0,0000      0,0000      0,0000      0,0000      
07.00       0,0000      0,0000      0,0000      0,0000      
07.30       0,0000      0,0000      0,0000      0,0000      
08.00       0,0000      0,0000      0,0000      0,0000      
08.30       0,0000      0,0000      0,0000      0,0000      
09.00       
09.30       
10.00       
10.30       
11.00       
11.30       
12.00       
12.30       
13.00       
13.30       
14.00       
14.30       
15.00       
15.30       
16.00       
16.30       
17.00       
17.30       
18.00       
18.30       
19.00       
19.30       
20.00       
20.30       
21.00       
21.30       
22.00       
22.30       
23.00       
23.30       

месяц 1     
сутки 21.01 0,0000      0,0000      0,0000      0,0000      
сутки 22.01 0,0000      0,0000      0,0000      0,0000      

месяц 1     0,0000      0,0000      0,0000      0,0000      


------------------------------------------------------------
сутки 21.01 
00.00       
00.30       
01.00       
01.30       
02.00       
02.30       
03.00       
03.30       
04.00       
04.30       
05.00       
05.30       
06.00       
06.30       
07.00       
07.30       
08.00       
08.30       
09.00       0           0           0           0           
09.30       0           0           0           0           
10.00       0           0           0           0           
10.30       0           0           0           0           
11.00       0           0           0           0           
11.30       0           0           0           0           
12.00       0           0           0           0           
12.30       0           0           0           0           
13.00       0           0           0           0           
13.30       0           0           0           0           
14.00       0           0           0           0           
14.30       0           0           0           0           
15.00       0           0           0           0           
15.30       0           0           0           0           
16.00       0           0           0           0           
16.30       0           0           0           0           
17.00       0           0           0           0           
17.30       0           0           0           0           
18.00       0           0           0           0           
18.30       149         0           0           35          
19.00       554         0           0           130         
19.30       449         0           0           108         
20.00       0           0           0           0           
20.30       374         0           0           89          
21.00       487         0           0           119         
21.30       499         0           0           124         
22.00       369         0           0           93          
22.30       0           0           0           0           
23.00       0           0           0           0           
23.30       0           0           0           0           

------------------------------------------------------------
сутки 22.01 
00.00       0           0           0           0           
00.30       0           0           0           0           
01.00       0           0           0           0           
01.30       0           0           0           0           
02.00       0           0           0           0           
02.30       0           0           0           0           
03.00       0           0           0           0           
03.30       0           0           0           0           
04.00       0           0           0           0           
04.30       0           0           0           0           
05.00       0           0           0           0           
05.30       0           0           0           0           
06.00       0           0           0           0           
06.30       0           0           0           0           
07.00       0           0           0           0           
07.30       459         0           0           126         
08.00       0           0           0           0           
08.30       0           0           0           0           
09.00       
09.30       
10.00       
10.30       
11.00       
11.30       
12.00       
12.30       
13.00       
13.30       
14.00       
14.30       
15.00       
15.30       
16.00       
16.30       
17.00       
17.30       
18.00       
18.30       
19.00       
19.30       
20.00       
20.30       
21.00       
21.30       
22.00       
22.30       
23.00       
23.30       

месяц 1     
сутки 21.01 2881        0           0           698         
сутки 22.01 459         0           0           126         

месяц 1     3340        0           0           824         
 


Начало опроса: 08:00:21 22.01.19
Конец опроса:  08:00:30 22.01.19
Длительность опроса: - 9 секунд(а) 
 
Опрос успешно завершен

// версия от 6 сентября 2014 года
